date Wed Apr 30 05:49:15.914 pm 2025
base hex  timestamps absolute
internal events logged
// version 16.2.0
// Measurement UUID: 2a77b9bc-459a-42ac-b566-2634e42f2b60
Begin TriggerBlock Wed Apr 30 05:49:15.914 pm 2025
   0.000000 Start of measurement
   0.002793 2  704             Rx   d 8 00 00 00 00 00 00 00 00  Length = 246000 BitCount = 127 ID = 1796
   0.003057 2  721             Rx   d 8 00 00 00 00 00 00 00 00  Length = 240000 BitCount = 124 ID = 1825
   0.003307 2  6FD             Rx   d 8 00 00 00 00 00 00 00 00  Length = 242000 BitCount = 125 ID = 1789
   0.003557 2  722             Rx   d 8 00 00 00 00 00 00 00 00  Length = 242000 BitCount = 125 ID = 1826
   0.003797 2  706             Rx   d 8 06 00 57 19 56 00 00 00  Length = 232000 BitCount = 120 ID = 1798
   0.004047 2  709             Rx   d 8 00 00 00 00 00 00 00 00  Length = 242000 BitCount = 125 ID = 1801
   0.004293 2  742             Rx   d 8 00 00 00 00 00 00 00 10  Length = 238000 BitCount = 123 ID = 1858
   0.004543 2  703             Rx   d 8 00 00 00 00 00 00 00 00  Length = 242000 BitCount = 125 ID = 1795
   0.004795 2  70A             Rx   d 8 00 00 00 00 00 00 00 00  Length = 244000 BitCount = 126 ID = 1802
   0.005045 2  6FE             Rx   d 8 01 00 05 00 00 00 00 00  Length = 242000 BitCount = 125 ID = 1790
   0.005293 2  70B             Rx   d 8 00 00 00 00 00 00 00 00  Length = 240000 BitCount = 124 ID = 1803
   0.005545 2  707             Rx   d 8 00 00 00 00 00 00 00 00  Length = 244000 BitCount = 126 ID = 1799
   0.005795 2  70C             Rx   d 8 00 00 00 00 00 00 00 00  Length = 242000 BitCount = 125 ID = 1804
   0.006030 2  743             Rx   d 8 6E E0 06 32 32 00 00 10  Length = 227036 BitCount = 118 ID = 1859
   0.006270 2  5E              Rx   d 8 80 00 04 00 FE F5 C5 E1  Length = 231036 BitCount = 120 ID = 94
   0.006512 2  94              Rx   d 8 80 00 08 02 00 08 0C 50  Length = 233036 BitCount = 121 ID = 148
   0.006762 2  702             Rx   d 8 00 00 00 00 00 00 00 00  Length = 242000 BitCount = 125 ID = 1794
   0.007008 2  6FB             Rx   d 8 75 05 00 00 00 00 00 00  Length = 238000 BitCount = 123 ID = 1787
   0.007260 2  6FC             Rx   d 8 00 00 00 00 00 00 00 00  Length = 244000 BitCount = 126 ID = 1788
   0.007512 2  6FF             Rx   d 8 00 00 00 00 00 00 00 00  Length = 244000 BitCount = 126 ID = 1791
   0.007760 2  705             Rx   d 8 00 00 00 00 00 00 B0 29  Length = 240000 BitCount = 124 ID = 1797
   0.008004 2  701             Rx   d 8 B7 02 00 00 00 80 00 00  Length = 236000 BitCount = 122 ID = 1793
   0.008254 2  708             Rx   d 8 00 00 00 00 00 00 00 00  Length = 242000 BitCount = 125 ID = 1800
   0.008496 2  741             Rx   d 8 38 32 0F 0F 1E 08 08 10  Length = 234000 BitCount = 121 ID = 1857
   0.008750 2  704             Rx   d 8 00 00 00 00 00 00 00 00  Length = 246000 BitCount = 127 ID = 1796
   0.008998 2  721             Rx   d 8 00 00 00 00 00 00 00 00  Length = 240000 BitCount = 124 ID = 1825
   0.009248 2  6FD             Rx   d 8 00 00 00 00 00 00 00 00  Length = 242000 BitCount = 125 ID = 1789
   0.009498 2  722             Rx   d 8 00 00 00 00 00 00 00 00  Length = 242000 BitCount = 125 ID = 1826
   0.009738 2  706             Rx   d 8 06 00 57 19 56 00 00 00  Length = 232000 BitCount = 120 ID = 1798
   0.009988 2  709             Rx   d 8 00 00 00 00 00 00 00 00  Length = 242000 BitCount = 125 ID = 1801
   0.010224 2  742             Rx   d 8 78 80 07 90 01 05 05 05  Length = 228000 BitCount = 118 ID = 1858
   0.010474 2  703             Rx   d 8 00 00 00 00 00 00 00 00  Length = 242000 BitCount = 125 ID = 1795
   0.010726 2  70A             Rx   d 8 00 00 00 00 00 00 00 00  Length = 244000 BitCount = 126 ID = 1802
   0.010976 2  6FE             Rx   d 8 01 00 05 00 00 00 00 00  Length = 242000 BitCount = 125 ID = 1790
   0.011223 2  70B             Rx   d 8 00 00 00 00 00 00 00 00  Length = 239036 BitCount = 124 ID = 1803
   0.011475 2  707             Rx   d 8 00 00 00 00 00 00 00 00  Length = 243032 BitCount = 126 ID = 1799
   0.011725 2  70C             Rx   d 8 00 00 00 00 00 00 00 00  Length = 241032 BitCount = 125 ID = 1804
   0.011957 2  743             Rx   d 8 A5 50 0A FA A0 0F 08 02  Length = 224000 BitCount = 116 ID = 1859
   0.012197 2  5E              Rx   d 8 80 00 04 00 FE F5 C5 E1  Length = 232000 BitCount = 120 ID = 94
   0.012437 2  94              Rx   d 8 80 00 08 02 00 08 0C 6F  Length = 232000 BitCount = 120 ID = 148
   0.012687 2  702             Rx   d 8 00 00 00 00 00 00 00 00  Length = 242000 BitCount = 125 ID = 1794
   0.012933 2  6FB             Rx   d 8 75 05 00 00 00 00 00 00  Length = 238000 BitCount = 123 ID = 1787
   0.013185 2  6FC             Rx   d 8 00 00 00 00 00 00 00 00  Length = 244000 BitCount = 126 ID = 1788
   0.013437 2  6FF             Rx   d 8 00 00 00 00 00 00 00 00  Length = 244000 BitCount = 126 ID = 1791
   0.013685 2  705             Rx   d 8 00 00 00 00 00 00 B0 29  Length = 240000 BitCount = 124 ID = 1797
   0.013931 2  701             Rx   d 8 B8 02 00 00 00 80 00 00  Length = 238000 BitCount = 123 ID = 1793
   0.014181 2  708             Rx   d 8 00 00 00 00 00 00 00 00  Length = 242000 BitCount = 125 ID = 1800
   0.014429 2  741             Rx   d 8 08 00 00 00 00 00 00 20  Length = 240000 BitCount = 124 ID = 1857
   0.014683 2  704             Rx   d 8 00 00 00 00 00 00 00 00  Length = 246000 BitCount = 127 ID = 1796
   0.014931 2  721             Rx   d 8 00 00 00 00 00 00 00 00  Length = 240000 BitCount = 124 ID = 1825
   0.015181 2  6FD             Rx   d 8 00 00 00 00 00 00 00 00  Length = 242000 BitCount = 125 ID = 1789
   0.015431 2  722             Rx   d 8 00 00 00 00 00 00 00 00  Length = 242000 BitCount = 125 ID = 1826
   0.015671 2  706             Rx   d 8 06 00 57 18 56 00 00 00  Length = 232000 BitCount = 120 ID = 1798
   0.015921 2  709             Rx   d 8 00 00 00 00 00 00 00 00  Length = 242000 BitCount = 125 ID = 1801
   0.016167 2  742             Rx   d 8 00 00 00 00 00 00 00 10  Length = 238000 BitCount = 123 ID = 1858
   0.016416 2  703             Rx   d 8 00 00 00 00 00 00 00 00  Length = 241032 BitCount = 125 ID = 1795
   0.016668 2  70A             Rx   d 8 00 00 00 00 00 00 00 00  Length = 243032 BitCount = 126 ID = 1802
   0.016918 2  6FE             Rx   d 8 01 00 05 00 00 00 00 00  Length = 241032 BitCount = 125 ID = 1790
   0.017166 2  70B             Rx   d 8 00 00 00 00 00 00 00 00  Length = 240000 BitCount = 124 ID = 1803
   0.017418 2  707             Rx   d 8 00 00 00 00 00 00 00 00  Length = 244000 BitCount = 126 ID = 1799
   0.017629 CAN 1 Status:chip status error active
   0.017629 CAN 2 Status:chip status error active
   0.017668 2  70C             Rx   d 8 00 00 00 00 00 00 00 00  Length = 242000 BitCount = 125 ID = 1804
   0.017904 2  743             Rx   d 8 6E E0 06 32 32 00 00 10  Length = 228000 BitCount = 118 ID = 1859
   0.018144 2  5E              Rx   d 8 80 00 04 00 FE F5 C5 E1  Length = 232000 BitCount = 120 ID = 94
   0.018386 2  94              Rx   d 8 80 00 08 02 00 08 0C 7E  Length = 234000 BitCount = 121 ID = 148
   0.018636 2  702             Rx   d 8 00 00 00 00 00 00 00 00  Length = 242000 BitCount = 125 ID = 1794
   0.018882 2  6FB             Rx   d 8 75 05 00 00 00 00 00 00  Length = 238000 BitCount = 123 ID = 1787
   0.019134 2  6FC             Rx   d 8 00 00 00 00 00 00 00 00  Length = 244000 BitCount = 126 ID = 1788
   0.019386 2  6FF             Rx   d 8 00 00 00 00 00 00 00 00  Length = 244000 BitCount = 126 ID = 1791
   0.019634 2  705             Rx   d 8 00 00 00 00 00 00 B0 29  Length = 240000 BitCount = 124 ID = 1797
   0.019878 2  701             Rx   d 8 B7 02 00 00 00 80 00 00  Length = 236000 BitCount = 122 ID = 1793
   0.020128 2  708             Rx   d 8 00 00 00 00 00 00 00 00  Length = 242000 BitCount = 125 ID = 1800
   0.020370 2  741             Rx   d 8 21 21 0D 00 00 00 38 00  Length = 234000 BitCount = 121 ID = 1857
   0.020624 2  704             Rx   d 8 00 00 00 00 00 00 00 00  Length = 246000 BitCount = 127 ID = 1796
   0.020872 2  721             Rx   d 8 00 00 00 00 00 00 00 00  Length = 240000 BitCount = 124 ID = 1825
   0.021122 2  6FD             Rx   d 8 00 00 00 00 00 00 00 00  Length = 242000 BitCount = 125 ID = 1789
   0.021372 2  722             Rx   d 8 00 00 00 00 00 00 00 00  Length = 242000 BitCount = 125 ID = 1826
   0.021611 2  706             Rx   d 8 06 00 57 19 56 00 00 00  Length = 231036 BitCount = 120 ID = 1798
   0.021861 2  709             Rx   d 8 00 00 00 00 00 00 00 00  Length = 241032 BitCount = 125 ID = 1801
   0.022097 2  742             Rx   d 8 78 80 07 90 01 05 05 05  Length = 227036 BitCount = 118 ID = 1858
   0.022347 2  703             Rx   d 8 00 00 00 00 00 00 00 00  Length = 242000 BitCount = 125 ID = 1795
   0.022599 2  70A             Rx   d 8 00 00 00 00 00 00 00 00  Length = 244000 BitCount = 126 ID = 1802
   0.022849 2  6FE             Rx   d 8 01 00 05 00 00 00 00 00  Length = 242000 BitCount = 125 ID = 1790
   0.023097 2  70B             Rx   d 8 00 00 00 00 00 00 00 00  Length = 240000 BitCount = 124 ID = 1803
   0.023349 2  707             Rx   d 8 00 00 00 00 00 00 00 00  Length = 244000 BitCount = 126 ID = 1799
   0.023599 2  70C             Rx   d 8 00 00 00 00 00 00 00 00  Length = 242000 BitCount = 125 ID = 1804
   0.023831 2  743             Rx   d 8 A5 50 0A FA A0 0F 08 02  Length = 224000 BitCount = 116 ID = 1859
   0.024071 2  5E              Rx   d 8 80 00 04 00 FE F5 C5 E1  Length = 232000 BitCount = 120 ID = 94
   0.024311 2  94              Rx   d 8 80 00 08 02 00 08 0C 41  Length = 232000 BitCount = 120 ID = 148
   0.024561 2  702             Rx   d 8 00 00 00 00 00 00 00 00  Length = 242000 BitCount = 125 ID = 1794
   0.024807 2  6FB             Rx   d 8 75 05 00 00 00 00 00 00  Length = 238000 BitCount = 123 ID = 1787
   0.025059 2  6FC             Rx   d 8 00 00 00 00 00 00 00 00  Length = 244000 BitCount = 126 ID = 1788
   0.025311 2  6FF             Rx   d 8 00 00 00 00 00 00 00 00  Length = 244000 BitCount = 126 ID = 1791
   0.025559 2  705             Rx   d 8 00 00 00 00 00 00 B0 29  Length = 240000 BitCount = 124 ID = 1797
   0.025805 2  701             Rx   d 8 B8 02 00 00 00 80 00 00  Length = 238000 BitCount = 123 ID = 1793
   0.026055 2  708             Rx   d 8 00 00 00 00 00 00 00 00  Length = 242000 BitCount = 125 ID = 1800
   0.026297 2  741             Rx   d 8 38 32 0F 0F 1E 08 08 10  Length = 234000 BitCount = 121 ID = 1857
   0.026551 2  704             Rx   d 8 00 00 00 00 00 00 00 00  Length = 246000 BitCount = 127 ID = 1796
   0.026798 2  721             Rx   d 8 00 00 00 00 00 00 00 00  Length = 239036 BitCount = 124 ID = 1825
   0.027048 2  6FD             Rx   d 8 00 00 00 00 00 00 00 00  Length = 241032 BitCount = 125 ID = 1789
   0.027298 2  722             Rx   d 8 00 00 00 00 00 00 00 00  Length = 241032 BitCount = 125 ID = 1826
   0.027540 2  706             Rx   d 8 06 00 57 17 56 00 00 00  Length = 234000 BitCount = 121 ID = 1798
   0.027790 2  709             Rx   d 8 00 00 00 00 00 00 00 00  Length = 242000 BitCount = 125 ID = 1801
   0.028036 2  742             Rx   d 8 00 00 00 00 00 00 00 10  Length = 238000 BitCount = 123 ID = 1858
   0.028286 2  703             Rx   d 8 00 00 00 00 00 00 00 00  Length = 242000 BitCount = 125 ID = 1795
   0.028538 2  70A             Rx   d 8 00 00 00 00 00 00 00 00  Length = 244000 BitCount = 126 ID = 1802
   0.028788 2  6FE             Rx   d 8 01 00 05 00 00 00 00 00  Length = 242000 BitCount = 125 ID = 1790
   0.029036 2  70B             Rx   d 8 00 00 00 00 00 00 00 00  Length = 240000 BitCount = 124 ID = 1803
   0.029288 2  707             Rx   d 8 00 00 00 00 00 00 00 00  Length = 244000 BitCount = 126 ID = 1799
   0.029538 2  70C             Rx   d 8 00 00 00 00 00 00 00 00  Length = 242000 BitCount = 125 ID = 1804
   0.029774 2  743             Rx   d 8 6E E0 06 32 32 00 00 10  Length = 228000 BitCount = 118 ID = 1859
   0.030014 2  5E              Rx   d 8 80 00 04 00 FE F5 C5 E1  Length = 232000 BitCount = 120 ID = 94
   0.030256 2  94              Rx   d 8 80 00 08 02 00 08 0C 50  Length = 234000 BitCount = 121 ID = 148
   0.030506 2  702             Rx   d 8 00 00 00 00 00 00 00 00  Length = 242000 BitCount = 125 ID = 1794
   0.030752 2  6FB             Rx   d 8 75 05 00 00 00 00 00 00  Length = 238000 BitCount = 123 ID = 1787
   0.031004 2  6FC             Rx   d 8 00 00 00 00 00 00 00 00  Length = 244000 BitCount = 126 ID = 1788
   0.031256 2  6FF             Rx   d 8 00 00 00 00 00 00 00 00  Length = 244000 BitCount = 126 ID = 1791
   0.031504 2  705             Rx   d 8 00 00 00 00 00 00 B0 29  Length = 240000 BitCount = 124 ID = 1797
   0.031750 2  701             Rx   d 8 B8 02 00 00 00 80 00 00  Length = 238000 BitCount = 123 ID = 1793
   0.031999 2  708             Rx   d 8 00 00 00 00 00 00 00 00  Length = 241032 BitCount = 125 ID = 1800
   0.032247 2  741             Rx   d 8 08 00 00 00 00 00 00 20  Length = 239036 BitCount = 124 ID = 1857
   0.032501 2  704             Rx   d 8 00 00 00 00 00 00 00 00  Length = 245032 BitCount = 127 ID = 1796
   0.032749 2  721             Rx   d 8 00 00 00 00 00 00 00 00  Length = 240000 BitCount = 124 ID = 1825
   0.032999 2  6FD             Rx   d 8 00 00 00 00 00 00 00 00  Length = 242000 BitCount = 125 ID = 1789
   0.033249 2  722             Rx   d 8 00 00 00 00 00 00 00 00  Length = 242000 BitCount = 125 ID = 1826
   0.033489 2  706             Rx   d 8 04 00 57 15 56 00 00 00  Length = 232000 BitCount = 120 ID = 1798
   0.033739 2  709             Rx   d 8 00 00 00 00 00 00 00 00  Length = 242000 BitCount = 125 ID = 1801
   0.033975 2  742             Rx   d 8 78 80 07 90 01 05 05 05  Length = 228000 BitCount = 118 ID = 1858
   0.034225 2  703             Rx   d 8 00 00 00 00 00 00 00 00  Length = 242000 BitCount = 125 ID = 1795
   0.034477 2  70A             Rx   d 8 00 00 00 00 00 00 00 00  Length = 244000 BitCount = 126 ID = 1802
   0.034725 2  6FE             Rx   d 8 01 00 03 00 00 00 00 00  Length = 240000 BitCount = 124 ID = 1790
   0.034973 2  70B             Rx   d 8 00 00 00 00 00 00 00 00  Length = 240000 BitCount = 124 ID = 1803
   0.035225 2  707             Rx   d 8 00 00 00 00 00 00 00 00  Length = 244000 BitCount = 126 ID = 1799
   0.035477 2  707             Rx   d 8 00 00 00 00 00 00 00 00  Length = 244000 BitCount = 126 ID = 1799
   0.035727 2  70C             Rx   d 8 00 00 00 00 00 00 00 00  Length = 242000 BitCount = 125 ID = 1804
   0.035977 2  702             Rx   d 8 00 00 00 00 00 00 00 00  Length = 242000 BitCount = 125 ID = 1794
   0.036223 2  6FB             Rx   d 8 75 05 00 00 00 00 00 00  Length = 238000 BitCount = 123 ID = 1787
   0.036475 2  6FC             Rx   d 8 00 00 00 00 00 00 00 00  Length = 244000 BitCount = 126 ID = 1788
   0.036727 2  6FF             Rx   d 8 00 00 00 00 00 00 00 00  Length = 244000 BitCount = 126 ID = 1791
   0.036975 2  705             Rx   d 8 00 00 00 00 00 00 B0 29  Length = 240000 BitCount = 124 ID = 1797
   0.037220 2  701             Rx   d 8 B8 02 00 00 00 80 00 00  Length = 237036 BitCount = 123 ID = 1793
   0.037470 2  708             Rx   d 8 00 00 00 00 00 00 00 00  Length = 241032 BitCount = 125 ID = 1800
   0.037712 2  741             Rx   d 8 21 21 0D 00 00 00 38 00  Length = 233036 BitCount = 121 ID = 1857
   0.037966 2  704             Rx   d 8 00 00 00 00 00 00 00 00  Length = 246000 BitCount = 127 ID = 1796
   0.038214 2  721             Rx   d 8 00 00 00 00 00 00 00 00  Length = 240000 BitCount = 124 ID = 1825
   0.038464 2  6FD             Rx   d 8 00 00 00 00 00 00 00 00  Length = 242000 BitCount = 125 ID = 1789
   0.038714 2  722             Rx   d 8 00 00 00 00 00 00 00 00  Length = 242000 BitCount = 125 ID = 1826
   0.038954 2  706             Rx   d 8 03 00 57 00 56 00 00 00  Length = 232000 BitCount = 120 ID = 1798
   0.039204 2  709             Rx   d 8 00 00 00 00 00 00 00 00  Length = 242000 BitCount = 125 ID = 1801
   0.039450 2  742             Rx   d 8 00 00 00 00 00 00 00 10  Length = 238000 BitCount = 123 ID = 1858
   0.039700 2  703             Rx   d 8 00 00 00 00 00 00 00 00  Length = 242000 BitCount = 125 ID = 1795
   0.039952 2  70A             Rx   d 8 00 00 00 00 00 00 00 00  Length = 244000 BitCount = 126 ID = 1802
   0.040202 2  6FE             Rx   d 8 02 00 01 00 00 00 00 00  Length = 242000 BitCount = 125 ID = 1790
   0.040450 2  70B             Rx   d 8 00 00 00 00 00 00 00 00  Length = 240000 BitCount = 124 ID = 1803
   0.040702 2  707             Rx   d 8 00 00 00 00 00 00 00 00  Length = 244000 BitCount = 126 ID = 1799
   0.040952 2  70C             Rx   d 8 00 00 00 00 00 00 00 00  Length = 242000 BitCount = 125 ID = 1804
   0.041188 2  743             Rx   d 8 6E E0 06 32 32 00 00 10  Length = 228000 BitCount = 118 ID = 1859
   0.041428 2  5E              Rx   d 8 80 00 04 00 FE F5 C5 E1  Length = 232000 BitCount = 120 ID = 94
   0.041670 2  94              Rx   d 8 80 00 08 02 00 08 0C 7E  Length = 234000 BitCount = 121 ID = 148
   0.041920 2  702             Rx   d 8 00 00 00 00 00 00 00 00  Length = 242000 BitCount = 125 ID = 1794
   0.042166 2  6FB             Rx   d 8 75 05 00 00 00 00 00 00  Length = 238000 BitCount = 123 ID = 1787
   0.042417 2  6FC             Rx   d 8 00 00 00 00 00 00 00 00  Length = 243032 BitCount = 126 ID = 1788
   0.042669 2  6FF             Rx   d 8 00 00 00 00 00 00 00 00  Length = 243032 BitCount = 126 ID = 1791
   0.042917 2  705             Rx   d 8 00 00 00 00 00 00 B0 29  Length = 239036 BitCount = 124 ID = 1797
   0.043161 2  701             Rx   d 8 B7 02 00 00 00 80 00 00  Length = 236000 BitCount = 122 ID = 1793
   0.043411 2  708             Rx   d 8 00 00 00 00 00 00 00 00  Length = 242000 BitCount = 125 ID = 1800
   0.043653 2  741             Rx   d 8 38 32 0F 0F 1E 08 08 10  Length = 234000 BitCount = 121 ID = 1857
   0.043907 2  704             Rx   d 8 00 00 00 00 00 00 00 00  Length = 246000 BitCount = 127 ID = 1796
   0.044155 2  721             Rx   d 8 00 00 00 00 00 00 00 00  Length = 240000 BitCount = 124 ID = 1825
   0.044405 2  6FD             Rx   d 8 00 00 00 00 00 00 00 00  Length = 242000 BitCount = 125 ID = 1789
   0.044655 2  722             Rx   d 8 00 00 00 00 00 00 00 00  Length = 242000 BitCount = 125 ID = 1826
   0.044895 2  706             Rx   d 8 03 00 57 00 56 00 00 00  Length = 232000 BitCount = 120 ID = 1798
   0.045145 2  709             Rx   d 8 00 00 00 00 00 00 00 00  Length = 242000 BitCount = 125 ID = 1801
   0.045381 2  742             Rx   d 8 78 80 07 90 01 05 05 05  Length = 228000 BitCount = 118 ID = 1858
   0.045631 2  703             Rx   d 8 00 00 00 00 00 00 00 00  Length = 242000 BitCount = 125 ID = 1795
   0.045883 2  70A             Rx   d 8 00 00 00 00 00 00 00 00  Length = 244000 BitCount = 126 ID = 1802
   0.046133 2  6FE             Rx   d 8 02 00 01 00 00 00 00 00  Length = 242000 BitCount = 125 ID = 1790
   0.046381 2  70B             Rx   d 8 00 00 00 00 00 00 00 00  Length = 240000 BitCount = 124 ID = 1803
   0.046633 2  707             Rx   d 8 00 00 00 00 00 00 00 00  Length = 244000 BitCount = 126 ID = 1799
   0.046883 2  70C             Rx   d 8 00 00 00 00 00 00 00 00  Length = 242000 BitCount = 125 ID = 1804
   0.047115 2  743             Rx   d 8 A5 50 0A FA A0 0F 08 02  Length = 224000 BitCount = 116 ID = 1859
   0.047355 2  5E              Rx   d 8 80 00 04 00 FE F5 C5 E1  Length = 232000 BitCount = 120 ID = 94
   0.047594 2  94              Rx   d 8 80 00 08 02 00 08 0C 41  Length = 231036 BitCount = 120 ID = 148
   0.047844 2  702             Rx   d 8 00 00 00 00 00 00 00 00  Length = 241032 BitCount = 125 ID = 1794
   0.048090 2  6FB             Rx   d 8 75 05 00 00 00 00 00 00  Length = 237036 BitCount = 123 ID = 1787
   0.048342 2  6FC             Rx   d 8 00 00 00 00 00 00 00 00  Length = 244000 BitCount = 126 ID = 1788
   0.048594 2  6FF             Rx   d 8 00 00 00 00 00 00 00 00  Length = 244000 BitCount = 126 ID = 1791
   0.048842 2  705             Rx   d 8 00 00 00 00 00 00 B0 29  Length = 240000 BitCount = 124 ID = 1797
   0.049086 2  701             Rx   d 8 B7 02 00 00 00 80 00 00  Length = 236000 BitCount = 122 ID = 1793
   0.049336 2  708             Rx   d 8 00 00 00 00 00 00 00 00  Length = 242000 BitCount = 125 ID = 1800
   0.049584 2  741             Rx   d 8 08 00 00 00 00 00 00 20  Length = 240000 BitCount = 124 ID = 1857
   0.049838 2  704             Rx   d 8 00 00 00 00 00 00 00 00  Length = 246000 BitCount = 127 ID = 1796
   0.050086 2  721             Rx   d 8 00 00 00 00 00 00 00 00  Length = 240000 BitCount = 124 ID = 1825
   0.050336 2  6FD             Rx   d 8 00 00 00 00 00 00 00 00  Length = 242000 BitCount = 125 ID = 1789
   0.050586 2  722             Rx   d 8 00 00 00 00 00 00 00 00  Length = 242000 BitCount = 125 ID = 1826
   0.050826 2  706             Rx   d 8 03 00 57 00 56 00 00 00  Length = 232000 BitCount = 120 ID = 1798
   0.051076 2  709             Rx   d 8 00 00 00 00 00 00 00 00  Length = 242000 BitCount = 125 ID = 1801
   0.051322 2  742             Rx   d 8 00 00 00 00 00 00 00 10  Length = 238000 BitCount = 123 ID = 1858
   0.051572 2  703             Rx   d 8 00 00 00 00 00 00 00 00  Length = 242000 BitCount = 125 ID = 1795
   0.051824 2  70A             Rx   d 8 00 00 00 00 00 00 00 00  Length = 244000 BitCount = 126 ID = 1802
   0.052074 2  6FE             Rx   d 8 02 00 01 00 00 00 00 00  Length = 242000 BitCount = 125 ID = 1790
   0.052322 2  70B             Rx   d 8 00 00 00 00 00 00 00 00  Length = 240000 BitCount = 124 ID = 1803
   0.052574 2  707             Rx   d 8 00 00 00 00 00 00 00 00  Length = 244000 BitCount = 126 ID = 1799
   0.052823 2  70C             Rx   d 8 00 00 00 00 00 00 00 00  Length = 241032 BitCount = 125 ID = 1804
   0.053059 2  743             Rx   d 8 6E E0 06 32 32 00 00 10  Length = 227036 BitCount = 118 ID = 1859
   0.053299 2  5E              Rx   d 8 80 00 04 00 FE F5 C5 E1  Length = 231036 BitCount = 120 ID = 94
   0.053541 2  94              Rx   d 8 80 00 08 02 00 08 0C 50  Length = 234000 BitCount = 121 ID = 148
   0.053791 2  702             Rx   d 8 00 00 00 00 00 00 00 00  Length = 242000 BitCount = 125 ID = 1794
   0.054037 2  6FB             Rx   d 8 75 05 00 00 00 00 00 00  Length = 238000 BitCount = 123 ID = 1787
   0.054289 2  6FC             Rx   d 8 00 00 00 00 00 00 00 00  Length = 244000 BitCount = 126 ID = 1788
   0.054541 2  6FF             Rx   d 8 00 00 00 00 00 00 00 00  Length = 244000 BitCount = 126 ID = 1791
   0.054789 2  705             Rx   d 8 00 00 00 00 00 00 B0 29  Length = 240000 BitCount = 124 ID = 1797
   0.055033 2  701             Rx   d 8 B7 02 00 00 00 80 00 00  Length = 236000 BitCount = 122 ID = 1793
   0.055283 2  708             Rx   d 8 00 00 00 00 00 00 00 00  Length = 242000 BitCount = 125 ID = 1800
   0.055525 2  741             Rx   d 8 21 21 0D 00 00 00 38 00  Length = 234000 BitCount = 121 ID = 1857
   0.055779 2  704             Rx   d 8 00 00 00 00 00 00 00 00  Length = 246000 BitCount = 127 ID = 1796
   0.056027 2  721             Rx   d 8 00 00 00 00 00 00 00 00  Length = 240000 BitCount = 124 ID = 1825
   0.056277 2  6FD             Rx   d 8 00 00 00 00 00 00 00 00  Length = 242000 BitCount = 125 ID = 1789
   0.056527 2  722             Rx   d 8 00 00 00 00 00 00 00 00  Length = 242000 BitCount = 125 ID = 1826
   0.056767 2  706             Rx   d 8 03 00 57 00 56 00 00 00  Length = 232000 BitCount = 120 ID = 1798
   0.057017 2  709             Rx   d 8 00 00 00 00 00 00 00 00  Length = 242000 BitCount = 125 ID = 1801
   0.057253 2  742             Rx   d 8 78 80 07 90 01 05 05 05  Length = 228000 BitCount = 118 ID = 1858
   0.057503 2  703             Rx   d 8 00 00 00 00 00 00 00 00  Length = 242000 BitCount = 125 ID = 1795
   0.057755 2  70A             Rx   d 8 00 00 00 00 00 00 00 00  Length = 244000 BitCount = 126 ID = 1802
   0.058004 2  6FE             Rx   d 8 02 00 01 00 00 00 00 00  Length = 241032 BitCount = 125 ID = 1790
   0.058252 2  70B             Rx   d 8 00 00 00 00 00 00 00 00  Length = 239036 BitCount = 124 ID = 1803
   0.058504 2  707             Rx   d 8 00 00 00 00 00 00 00 00  Length = 243032 BitCount = 126 ID = 1799
   0.058754 2  70C             Rx   d 8 00 00 00 00 00 00 00 00  Length = 242000 BitCount = 125 ID = 1804
   0.058986 2  743             Rx   d 8 A5 50 0A FA A0 0F 08 02  Length = 224000 BitCount = 116 ID = 1859
   0.059226 2  5E              Rx   d 8 80 00 04 00 FE F5 C5 E1  Length = 232000 BitCount = 120 ID = 94
   0.059466 2  94              Rx   d 8 80 00 08 02 00 08 0C 6F  Length = 232000 BitCount = 120 ID = 148
   0.059716 2  702             Rx   d 8 00 00 00 00 00 00 00 00  Length = 242000 BitCount = 125 ID = 1794
   0.059962 2  6FB             Rx   d 8 75 05 00 00 00 00 00 00  Length = 238000 BitCount = 123 ID = 1787
   0.060214 2  6FC             Rx   d 8 00 00 00 00 00 00 00 00  Length = 244000 BitCount = 126 ID = 1788
   0.060466 2  6FF             Rx   d 8 00 00 00 00 00 00 00 00  Length = 244000 BitCount = 126 ID = 1791
   0.060714 2  705             Rx   d 8 00 00 00 00 00 00 B0 29  Length = 240000 BitCount = 124 ID = 1797
   0.060960 2  701             Rx   d 8 B8 02 00 00 00 80 00 00  Length = 238000 BitCount = 123 ID = 1793
   0.061210 2  708             Rx   d 8 00 00 00 00 00 00 00 00  Length = 242000 BitCount = 125 ID = 1800
   0.061452 2  741             Rx   d 8 38 32 0F 0F 1E 08 08 10  Length = 234000 BitCount = 121 ID = 1857
   0.061706 2  704             Rx   d 8 00 00 00 00 00 00 00 00  Length = 246000 BitCount = 127 ID = 1796
   0.061954 2  721             Rx   d 8 00 00 00 00 00 00 00 00  Length = 240000 BitCount = 124 ID = 1825
   0.062204 2  6FD             Rx   d 8 00 00 00 00 00 00 00 00  Length = 242000 BitCount = 125 ID = 1789
   0.062454 2  722             Rx   d 8 00 00 00 00 00 00 00 00  Length = 242000 BitCount = 125 ID = 1826
   0.062694 2  706             Rx   d 8 03 00 57 00 56 00 00 00  Length = 232000 BitCount = 120 ID = 1798
   0.062944 2  709             Rx   d 8 00 00 00 00 00 00 00 00  Length = 242000 BitCount = 125 ID = 1801
   0.063189 2  742             Rx   d 8 00 00 00 00 00 00 00 10  Length = 237036 BitCount = 123 ID = 1858
   0.063439 2  703             Rx   d 8 00 00 00 00 00 00 00 00  Length = 241032 BitCount = 125 ID = 1795
   0.063691 2  70A             Rx   d 8 00 00 00 00 00 00 00 00  Length = 243032 BitCount = 126 ID = 1802
   0.063941 2  6FE             Rx   d 8 02 00 01 00 00 00 00 00  Length = 242000 BitCount = 125 ID = 1790
   0.064189 2  70B             Rx   d 8 00 00 00 00 00 00 00 00  Length = 240000 BitCount = 124 ID = 1803
   0.064441 2  707             Rx   d 8 00 00 00 00 00 00 00 00  Length = 244000 BitCount = 126 ID = 1799
   0.064691 2  70C             Rx   d 8 00 00 00 00 00 00 00 00  Length = 242000 BitCount = 125 ID = 1804
   0.064927 2  743             Rx   d 8 6E E0 06 32 32 00 00 10  Length = 228000 BitCount = 118 ID = 1859
   0.065167 2  5E              Rx   d 8 80 00 04 00 FE F5 C5 E1  Length = 232000 BitCount = 120 ID = 94
   0.065409 2  94              Rx   d 8 80 00 08 02 00 08 0C 7E  Length = 234000 BitCount = 121 ID = 148
   0.065659 2  702             Rx   d 8 00 00 00 00 00 00 00 00  Length = 242000 BitCount = 125 ID = 1794
   0.065905 2  6FB             Rx   d 8 75 05 00 00 00 00 00 00  Length = 238000 BitCount = 123 ID = 1787
   0.066157 2  6FC             Rx   d 8 00 00 00 00 00 00 00 00  Length = 244000 BitCount = 126 ID = 1788
   0.066409 2  6FF             Rx   d 8 00 00 00 00 00 00 00 00  Length = 244000 BitCount = 126 ID = 1791
   0.066657 2  705             Rx   d 8 00 00 00 00 00 00 B0 29  Length = 240000 BitCount = 124 ID = 1797
   0.066901 2  701             Rx   d 8 B7 02 00 00 00 80 00 00  Length = 236000 BitCount = 122 ID = 1793
   0.067151 2  708             Rx   d 8 00 00 00 00 00 00 00 00  Length = 242000 BitCount = 125 ID = 1800
   0.067399 2  741             Rx   d 8 08 00 00 00 00 00 00 20  Length = 240000 BitCount = 124 ID = 1857
   0.067653 2  704             Rx   d 8 00 00 00 00 00 00 00 00  Length = 246000 BitCount = 127 ID = 1796
   0.067901 2  721             Rx   d 8 00 00 00 00 00 00 00 00  Length = 240000 BitCount = 124 ID = 1825
   0.068151 2  6FD             Rx   d 8 00 00 00 00 00 00 00 00  Length = 242000 BitCount = 125 ID = 1789
   0.068400 2  722             Rx   d 8 00 00 00 00 00 00 00 00  Length = 241032 BitCount = 125 ID = 1826
   0.068640 2  706             Rx   d 8 03 00 57 00 56 00 00 00  Length = 231036 BitCount = 120 ID = 1798
   0.068890 2  709             Rx   d 8 00 00 00 00 00 00 00 00  Length = 241032 BitCount = 125 ID = 1801
   0.069126 2  742             Rx   d 8 78 80 07 90 01 05 05 05  Length = 228000 BitCount = 118 ID = 1858
   0.069376 2  703             Rx   d 8 00 00 00 00 00 00 00 00  Length = 242000 BitCount = 125 ID = 1795
   0.069628 2  70A             Rx   d 8 00 00 00 00 00 00 00 00  Length = 244000 BitCount = 126 ID = 1802
   0.069878 2  6FE             Rx   d 8 02 00 01 00 00 00 00 00  Length = 242000 BitCount = 125 ID = 1790
   0.070126 2  70B             Rx   d 8 00 00 00 00 00 00 00 00  Length = 240000 BitCount = 124 ID = 1803
   0.070378 2  707             Rx   d 8 00 00 00 00 00 00 00 00  Length = 244000 BitCount = 126 ID = 1799
   0.070628 2  70C             Rx   d 8 00 00 00 00 00 00 00 00  Length = 242000 BitCount = 125 ID = 1804
   0.070860 2  743             Rx   d 8 A5 50 0A FA A0 0F 08 02  Length = 224000 BitCount = 116 ID = 1859
   0.071100 2  5E              Rx   d 8 80 00 04 00 FE F5 C5 E1  Length = 232000 BitCount = 120 ID = 94
   0.071340 2  94              Rx   d 8 80 00 08 02 00 08 0C 41  Length = 232000 BitCount = 120 ID = 148
   0.071590 2  702             Rx   d 8 00 00 00 00 00 00 00 00  Length = 242000 BitCount = 125 ID = 1794
   0.071836 2  6FB             Rx   d 8 75 05 00 00 00 00 00 00  Length = 238000 BitCount = 123 ID = 1787
   0.072088 2  6FC             Rx   d 8 00 00 00 00 00 00 00 00  Length = 244000 BitCount = 126 ID = 1788
   0.072340 2  6FF             Rx   d 8 00 00 00 00 00 00 00 00  Length = 244000 BitCount = 126 ID = 1791
   0.072588 2  705             Rx   d 8 00 00 00 00 00 00 B0 29  Length = 240000 BitCount = 124 ID = 1797
   0.072834 2  701             Rx   d 8 B8 02 00 00 00 80 00 00  Length = 238000 BitCount = 123 ID = 1793
   0.073084 2  708             Rx   d 8 00 00 00 00 00 00 00 00  Length = 242000 BitCount = 125 ID = 1800
   0.073326 2  741             Rx   d 8 21 21 0D 00 00 00 38 00  Length = 234000 BitCount = 121 ID = 1857
   0.073579 2  704             Rx   d 8 00 00 00 00 00 00 00 00  Length = 245032 BitCount = 127 ID = 1796
   0.073827 2  721             Rx   d 8 00 00 00 00 00 00 00 00  Length = 239036 BitCount = 124 ID = 1825
   0.074077 2  6FD             Rx   d 8 00 00 00 00 00 00 00 00  Length = 241032 BitCount = 125 ID = 1789
   0.074327 2  722             Rx   d 8 00 00 00 00 00 00 00 00  Length = 242000 BitCount = 125 ID = 1826
   0.074567 2  706             Rx   d 8 03 00 57 00 56 00 00 00  Length = 232000 BitCount = 120 ID = 1798
   0.074817 2  709             Rx   d 8 00 00 00 00 00 00 00 00  Length = 242000 BitCount = 125 ID = 1801
   0.075063 2  742             Rx   d 8 00 00 00 00 00 00 00 10  Length = 238000 BitCount = 123 ID = 1858
   0.075313 2  703             Rx   d 8 00 00 00 00 00 00 00 00  Length = 242000 BitCount = 125 ID = 1795
   0.075565 2  70A             Rx   d 8 00 00 00 00 00 00 00 00  Length = 244000 BitCount = 126 ID = 1802
   0.075815 2  6FE             Rx   d 8 02 00 02 00 00 00 00 00  Length = 242000 BitCount = 125 ID = 1790
   0.076063 2  70B             Rx   d 8 00 00 00 00 00 00 00 00  Length = 240000 BitCount = 124 ID = 1803
   0.076315 2  707             Rx   d 8 00 00 00 00 00 00 00 00  Length = 244000 BitCount = 126 ID = 1799
   0.076565 2  70C             Rx   d 8 00 00 00 00 00 00 00 00  Length = 242000 BitCount = 125 ID = 1804
   0.076801 2  743             Rx   d 8 6E E0 06 32 32 00 00 10  Length = 228000 BitCount = 118 ID = 1859
   0.077041 2  5E              Rx   d 8 80 00 04 00 FE F5 C5 E1  Length = 232000 BitCount = 120 ID = 94
   0.077283 2  94              Rx   d 8 80 00 08 02 00 08 0C 50  Length = 234000 BitCount = 121 ID = 148
   0.077533 2  702             Rx   d 8 00 00 00 00 00 00 00 00  Length = 242000 BitCount = 125 ID = 1794
   0.077779 2  6FB             Rx   d 8 75 05 00 00 00 00 00 00  Length = 238000 BitCount = 123 ID = 1787
   0.078031 2  6FC             Rx   d 8 00 00 00 00 00 00 00 00  Length = 244000 BitCount = 126 ID = 1788
   0.078283 2  6FF             Rx   d 8 00 00 00 00 00 00 00 00  Length = 244000 BitCount = 126 ID = 1791
   0.078531 2  705             Rx   d 8 00 00 00 00 00 00 B0 29  Length = 240000 BitCount = 124 ID = 1797
   0.078774 2  701             Rx   d 8 B7 02 00 00 00 80 00 00  Length = 235036 BitCount = 122 ID = 1793
   0.079024 2  708             Rx   d 8 00 00 00 00 00 00 00 00  Length = 241032 BitCount = 125 ID = 1800
   0.079266 2  741             Rx   d 8 38 32 0F 0F 1E 08 08 10  Length = 233036 BitCount = 121 ID = 1857
   0.079520 2  704             Rx   d 8 00 00 00 00 00 00 00 00  Length = 246000 BitCount = 127 ID = 1796
   0.079768 2  721             Rx   d 8 00 00 00 00 00 00 00 00  Length = 240000 BitCount = 124 ID = 1825
   0.080018 2  6FD             Rx   d 8 00 00 00 00 00 00 00 00  Length = 242000 BitCount = 125 ID = 1789
   0.080268 2  722             Rx   d 8 00 00 00 00 00 00 00 00  Length = 242000 BitCount = 125 ID = 1826
   0.080508 2  706             Rx   d 8 03 00 57 00 56 00 00 00  Length = 232000 BitCount = 120 ID = 1798
   0.080758 2  709             Rx   d 8 00 00 00 00 00 00 00 00  Length = 242000 BitCount = 125 ID = 1801
   0.080994 2  742             Rx   d 8 78 80 07 90 01 05 05 05  Length = 228000 BitCount = 118 ID = 1858
   0.081434 2  703             Rx   d 8 00 00 00 00 00 00 00 00  Length = 242000 BitCount = 125 ID = 1795
   0.081686 2  70A             Rx   d 8 00 00 00 00 00 00 00 00  Length = 244000 BitCount = 126 ID = 1802
   0.082430 2  6FE             Rx   d 8 02 00 02 00 00 00 00 00  Length = 242000 BitCount = 125 ID = 1790
   0.082678 2  70B             Rx   d 8 00 00 00 00 00 00 00 00  Length = 240000 BitCount = 124 ID = 1803
   0.083440 2  707             Rx   d 8 00 00 00 00 00 00 00 00  Length = 244000 BitCount = 126 ID = 1799
   0.083690 2  70C             Rx   d 8 00 00 00 00 00 00 00 00  Length = 242000 BitCount = 125 ID = 1804
   0.083921 2  743             Rx   d 8 A5 50 0A FA A0 0F 08 02  Length = 223036 BitCount = 116 ID = 1859
   0.084161 2  5E              Rx   d 8 80 00 04 00 FE F5 C5 E1  Length = 231036 BitCount = 120 ID = 94
   0.084401 2  94              Rx   d 8 80 00 08 02 00 08 0C 6F  Length = 231036 BitCount = 120 ID = 148
   0.084651 2  702             Rx   d 8 00 00 00 00 00 00 00 00  Length = 242000 BitCount = 125 ID = 1794
   0.086505 2  6FB             Rx   d 8 F5 05 00 00 00 00 00 00  Length = 236000 BitCount = 122 ID = 1787
   0.086757 2  6FC             Rx   d 8 00 00 00 00 00 00 00 00  Length = 244000 BitCount = 126 ID = 1788
   0.087009 2  6FF             Rx   d 8 00 00 00 00 00 00 00 00  Length = 244000 BitCount = 126 ID = 1791
   0.087257 2  705             Rx   d 8 00 00 00 00 00 00 B0 29  Length = 240000 BitCount = 124 ID = 1797
   0.087597 2  701             Rx   d 8 B7 02 00 00 00 80 00 30  Length = 234000 BitCount = 121 ID = 1793
   0.087847 2  708             Rx   d 8 00 00 00 00 00 00 00 00  Length = 242000 BitCount = 125 ID = 1800
   0.088095 2  741             Rx   d 8 08 00 00 00 00 00 00 20  Length = 240000 BitCount = 124 ID = 1857
   0.088493 2  704             Rx   d 8 00 00 00 00 00 00 00 00  Length = 246000 BitCount = 127 ID = 1796
   0.088741 2  721             Rx   d 8 00 00 00 00 00 00 00 00  Length = 240000 BitCount = 124 ID = 1825
   0.089448 2  6FD             Rx   d 8 00 00 00 00 00 00 00 00  Length = 241032 BitCount = 125 ID = 1789
   0.089698 2  722             Rx   d 8 00 00 00 00 00 00 00 00  Length = 241032 BitCount = 125 ID = 1826
   0.089904 2  156             Rx   d 6 00 00 00 00 03 09  Length = 198000 BitCount = 103 ID = 342
   0.090425 1  140             Rx   d 8 80 E5 A1 00 00 00 00 0D  Length = 232000 BitCount = 120 ID = 320
   0.090436 2  706             Rx   d 8 03 00 57 00 56 00 00 00  Length = 232000 BitCount = 120 ID = 1798
   0.090686 2  709             Rx   d 8 00 00 00 00 00 00 00 00  Length = 242000 BitCount = 125 ID = 1801
   0.090932 2  742             Rx   d 8 00 00 00 00 00 00 00 10  Length = 238000 BitCount = 123 ID = 1858
   0.091140 2  156             Rx   d 6 00 00 00 00 07 23  Length = 200000 BitCount = 104 ID = 342
   0.091440 2  703             Rx   d 8 00 00 00 00 00 00 00 00  Length = 242000 BitCount = 125 ID = 1795
   0.091692 2  70A             Rx   d 8 00 00 00 00 00 00 00 00  Length = 244000 BitCount = 126 ID = 1802
   0.092425 1  83              Rx   d 8 00 00 00 00 00 00 00 1C  Length = 240000 BitCount = 124 ID = 131
   0.092438 2  6FE             Rx   d 8 02 00 01 00 00 00 00 00  Length = 242000 BitCount = 125 ID = 1790
   0.092686 2  70B             Rx   d 8 00 00 00 00 00 00 00 00  Length = 240000 BitCount = 124 ID = 1803
   0.093449 1  17C             Rx   d 8 00 00 03 1F 00 00 00 10  Length = 242000 BitCount = 125 ID = 380
   0.093466 2  707             Rx   d 8 00 00 00 00 00 00 00 00  Length = 244000 BitCount = 126 ID = 1799
   0.093654 1  89              Rx   d 6 00 00 00 00 00 16  Length = 197040 BitCount = 103 ID = 137
   0.093716 2  70C             Rx   d 8 00 00 00 00 00 00 00 00  Length = 242000 BitCount = 125 ID = 1804
   0.093952 2  743             Rx   d 8 6E E0 06 32 32 00 00 10  Length = 228000 BitCount = 118 ID = 1859
   0.094192 2  5E              Rx   d 8 80 00 04 00 FE F5 C5 E1  Length = 232000 BitCount = 120 ID = 94
   0.094433 2  94              Rx   d 8 80 00 08 02 00 08 0C 7E  Length = 233036 BitCount = 121 ID = 148
   0.094683 2  702             Rx   d 8 00 00 00 00 00 00 00 00  Length = 241032 BitCount = 125 ID = 1794
   0.096432 1  191             Rx   d 8 04 00 00 00 00 00 00 18  Length = 236000 BitCount = 122 ID = 401
   0.096447 2  6FB             Rx   d 8 F5 05 00 00 00 00 00 00  Length = 236000 BitCount = 122 ID = 1787
   0.096678 1  130             Rx   d 8 00 00 00 00 00 00 01 12  Length = 238000 BitCount = 123 ID = 304
   0.096699 2  6FC             Rx   d 8 00 00 00 00 00 00 00 00  Length = 244000 BitCount = 126 ID = 1788
   0.096951 2  6FF             Rx   d 8 00 00 00 00 00 00 00 00  Length = 244000 BitCount = 126 ID = 1791
   0.097199 2  705             Rx   d 8 00 00 00 00 00 00 B0 29  Length = 240000 BitCount = 124 ID = 1797
   0.097441 2  701             Rx   d 8 B7 02 00 00 00 80 00 30  Length = 234000 BitCount = 121 ID = 1793
   0.097691 2  708             Rx   d 8 00 00 00 00 00 00 00 00  Length = 242000 BitCount = 125 ID = 1800
   0.097933 2  741             Rx   d 8 21 21 0D 00 00 00 38 00  Length = 234000 BitCount = 121 ID = 1857
   0.098433 2  704             Rx   d 8 00 00 00 00 00 00 00 00  Length = 246000 BitCount = 127 ID = 1796
   0.098681 2  721             Rx   d 8 00 00 00 00 00 00 00 00  Length = 240000 BitCount = 124 ID = 1825
   0.099462 2  6FD             Rx   d 8 00 00 00 00 00 00 00 00  Length = 241032 BitCount = 125 ID = 1789
   0.099712 2  722             Rx   d 8 00 00 00 00 00 00 00 00  Length = 241032 BitCount = 125 ID = 1826
   0.099920 2  156             Rx   d 6 00 00 00 00 03 18  Length = 199040 BitCount = 104 ID = 342
   0.100435 1  140             Rx   d 8 80 E5 A1 00 00 00 00 1C  Length = 232000 BitCount = 120 ID = 320
   0.100446 2  706             Rx   d 8 03 00 57 00 56 00 00 00  Length = 232000 BitCount = 120 ID = 1798
   0.100696 2  709             Rx   d 8 00 00 00 00 00 00 00 00  Length = 242000 BitCount = 125 ID = 1801
   0.100932 2  742             Rx   d 8 78 80 07 90 01 05 05 05  Length = 228000 BitCount = 118 ID = 1858
   0.101138 2  156             Rx   d 6 00 00 00 00 07 32  Length = 198000 BitCount = 103 ID = 342
   0.101434 2  703             Rx   d 8 00 00 00 00 00 00 00 00  Length = 242000 BitCount = 125 ID = 1795
   0.101686 2  70A             Rx   d 8 00 00 00 00 00 00 00 00  Length = 244000 BitCount = 126 ID = 1802
   0.102423 1  83              Rx   d 8 00 00 00 00 00 00 00 2B  Length = 242000 BitCount = 125 ID = 131
   0.102432 2  6FE             Rx   d 8 02 00 01 00 00 00 00 00  Length = 242000 BitCount = 125 ID = 1790
   0.102680 2  70B             Rx   d 8 00 00 00 00 00 00 00 00  Length = 240000 BitCount = 124 ID = 1803
   0.103435 1  17C             Rx   d 8 00 00 03 1F 00 00 00 2F  Length = 240000 BitCount = 124 ID = 380
   0.103454 2  707             Rx   d 8 00 00 00 00 00 00 00 00  Length = 244000 BitCount = 126 ID = 1799
   0.103643 1  89              Rx   d 6 00 00 00 00 00 25  Length = 200000 BitCount = 104 ID = 137
   0.103704 2  70C             Rx   d 8 00 00 00 00 00 00 00 00  Length = 242000 BitCount = 125 ID = 1804
   0.103936 2  743             Rx   d 8 A5 50 0A FA A0 0F 08 02  Length = 224000 BitCount = 116 ID = 1859
   0.104176 2  5E              Rx   d 8 80 00 04 00 FE F5 C5 E1  Length = 232000 BitCount = 120 ID = 94
   0.104416 2  94              Rx   d 8 80 00 08 02 00 08 0C 41  Length = 232000 BitCount = 120 ID = 148
   0.104665 2  702             Rx   d 8 00 00 00 00 00 00 00 00  Length = 241032 BitCount = 125 ID = 1794
   0.106420 1  191             Rx   d 8 04 00 00 00 00 00 00 27  Length = 236000 BitCount = 122 ID = 401
   0.106435 2  6FB             Rx   d 8 F5 05 00 00 00 00 00 00  Length = 236000 BitCount = 122 ID = 1787
   0.106668 1  130             Rx   d 8 00 00 00 00 00 00 01 21  Length = 240000 BitCount = 124 ID = 304
   0.106687 2  6FC             Rx   d 8 00 00 00 00 00 00 00 00  Length = 244000 BitCount = 126 ID = 1788
   0.106939 2  6FF             Rx   d 8 00 00 00 00 00 00 00 00  Length = 244000 BitCount = 126 ID = 1791
   0.107187 2  705             Rx   d 8 00 00 00 00 00 00 B0 29  Length = 240000 BitCount = 124 ID = 1797
   0.107433 2  701             Rx   d 8 B6 02 00 00 00 80 00 30  Length = 238000 BitCount = 123 ID = 1793
   0.107683 2  708             Rx   d 8 00 00 00 00 00 00 00 00  Length = 242000 BitCount = 125 ID = 1800
   0.107925 2  741             Rx   d 8 38 32 0F 0F 1E 08 08 10  Length = 234000 BitCount = 121 ID = 1857
   0.108433 2  704             Rx   d 8 00 00 00 00 00 00 00 00  Length = 246000 BitCount = 127 ID = 1796
   0.108681 2  721             Rx   d 8 00 00 00 00 00 00 00 00  Length = 240000 BitCount = 124 ID = 1825
   0.109425 2  6FD             Rx   d 8 00 00 00 00 00 00 00 00  Length = 242000 BitCount = 125 ID = 1789
   0.109675 2  722             Rx   d 8 00 00 00 00 00 00 00 00  Length = 242000 BitCount = 125 ID = 1826
   0.109880 2  156             Rx   d 6 00 00 00 00 03 27  Length = 197040 BitCount = 103 ID = 342
   0.110455 1  140             Rx   d 8 80 E5 A1 00 00 00 00 2B  Length = 232000 BitCount = 120 ID = 320
   0.110466 2  706             Rx   d 8 03 00 57 00 56 00 00 00  Length = 231036 BitCount = 120 ID = 1798
   0.110716 2  709             Rx   d 8 00 00 00 00 00 00 00 00  Length = 242000 BitCount = 125 ID = 1801
   0.110962 2  742             Rx   d 8 00 00 00 00 00 00 00 10  Length = 238000 BitCount = 123 ID = 1858
   0.111170 2  156             Rx   d 6 00 00 00 00 07 05  Length = 200000 BitCount = 104 ID = 342
   0.111448 2  703             Rx   d 8 00 00 00 00 00 00 00 00  Length = 242000 BitCount = 125 ID = 1795
   0.111700 2  70A             Rx   d 8 00 00 00 00 00 00 00 00  Length = 244000 BitCount = 126 ID = 1802
   0.112457 1  83              Rx   d 8 00 00 00 00 00 00 00 3A  Length = 242000 BitCount = 125 ID = 131
   0.112468 2  6FE             Rx   d 8 02 00 01 00 00 00 00 00  Length = 242000 BitCount = 125 ID = 1790
   0.112716 2  70B             Rx   d 8 00 00 00 00 00 00 00 00  Length = 240000 BitCount = 124 ID = 1803
   0.113455 1  17C             Rx   d 8 00 00 03 1F 00 00 00 3E  Length = 242000 BitCount = 125 ID = 380
   0.113472 2  707             Rx   d 8 00 00 00 00 00 00 00 00  Length = 244000 BitCount = 126 ID = 1799
   0.113665 1  89              Rx   d 6 00 00 00 00 00 34  Length = 202000 BitCount = 105 ID = 137
   0.113722 2  70C             Rx   d 8 00 00 00 00 00 00 00 00  Length = 242000 BitCount = 125 ID = 1804
   0.113958 2  743             Rx   d 8 6E E0 06 32 32 00 00 10  Length = 228000 BitCount = 118 ID = 1859
   0.114198 2  5E              Rx   d 8 80 00 04 00 FE F5 C5 E1  Length = 232000 BitCount = 120 ID = 94
   0.114440 2  94              Rx   d 8 80 00 08 02 00 08 0C 50  Length = 234000 BitCount = 121 ID = 148
   0.114690 2  702             Rx   d 8 00 00 00 00 00 00 00 00  Length = 242000 BitCount = 125 ID = 1794
   0.116426 1  191             Rx   d 8 04 00 00 00 00 00 00 36  Length = 236000 BitCount = 122 ID = 401
   0.116449 2  6FB             Rx   d 8 F5 05 00 00 00 00 00 00  Length = 236000 BitCount = 122 ID = 1787
   0.116674 1  130             Rx   d 8 00 00 00 00 00 00 01 30  Length = 240000 BitCount = 124 ID = 304
   0.116701 2  6FC             Rx   d 8 00 00 00 00 00 00 00 00  Length = 244000 BitCount = 126 ID = 1788
   0.116922 1  454             Rx   d 8 00 00 00 00 00 00 00 0B  Length = 240000 BitCount = 124 ID = 1108
   0.116953 2  6FF             Rx   d 8 00 00 00 00 00 00 00 00  Length = 244000 BitCount = 126 ID = 1791
   0.117201 2  705             Rx   d 8 00 00 00 00 00 00 B0 29  Length = 240000 BitCount = 124 ID = 1797
   0.117443 2  701             Rx   d 8 B7 02 00 00 00 80 00 30  Length = 234000 BitCount = 121 ID = 1793
   0.117693 2  708             Rx   d 8 00 00 00 00 00 00 00 00  Length = 242000 BitCount = 125 ID = 1800
   0.117941 2  741             Rx   d 8 08 00 00 00 00 00 00 20  Length = 240000 BitCount = 124 ID = 1857
   0.118425 2  704             Rx   d 8 00 00 00 00 00 00 00 00  Length = 246000 BitCount = 127 ID = 1796
   0.118673 2  721             Rx   d 8 00 00 00 00 00 00 00 00  Length = 240000 BitCount = 124 ID = 1825
   0.119425 2  6FD             Rx   d 8 00 00 00 00 00 00 00 00  Length = 242000 BitCount = 125 ID = 1789
   0.119675 2  722             Rx   d 8 00 00 00 00 00 00 00 00  Length = 242000 BitCount = 125 ID = 1826
   0.119881 2  156             Rx   d 6 00 00 00 00 03 36  Length = 198000 BitCount = 103 ID = 342
   0.120413 1  140             Rx   d 8 80 E5 A1 00 00 00 00 3A  Length = 230000 BitCount = 119 ID = 320
   0.120424 2  706             Rx   d 8 03 00 57 01 56 00 00 00  Length = 231036 BitCount = 120 ID = 1798
   0.120674 2  709             Rx   d 8 00 00 00 00 00 00 00 00  Length = 241032 BitCount = 125 ID = 1801
   0.120910 2  742             Rx   d 8 78 80 07 90 01 05 05 05  Length = 227036 BitCount = 118 ID = 1858
   0.121118 2  156             Rx   d 6 00 00 00 00 07 14  Length = 200000 BitCount = 104 ID = 342
   0.121468 2  703             Rx   d 8 00 00 00 00 00 00 00 00  Length = 242000 BitCount = 125 ID = 1795
   0.121720 2  70A             Rx   d 8 00 00 00 00 00 00 00 00  Length = 244000 BitCount = 126 ID = 1802
   0.122441 1  83              Rx   d 8 00 00 00 00 00 00 00 0D  Length = 240000 BitCount = 124 ID = 131
   0.122454 2  6FE             Rx   d 8 02 00 02 00 00 00 00 00  Length = 242000 BitCount = 125 ID = 1790
   0.122702 2  70B             Rx   d 8 00 00 00 00 00 00 00 00  Length = 240000 BitCount = 124 ID = 1803
   0.123451 1  17C             Rx   d 8 00 00 03 1F 00 00 00 01  Length = 244000 BitCount = 126 ID = 380
   0.123466 2  707             Rx   d 8 00 00 00 00 00 00 00 00  Length = 244000 BitCount = 126 ID = 1799
   0.123661 1  89              Rx   d 6 00 00 00 00 00 07  Length = 202000 BitCount = 105 ID = 137
   0.123716 2  70C             Rx   d 8 00 00 00 00 00 00 00 00  Length = 242000 BitCount = 125 ID = 1804
   0.123948 2  743             Rx   d 8 A5 50 0A FA A0 0F 08 02  Length = 224000 BitCount = 116 ID = 1859
   0.124188 2  5E              Rx   d 8 80 00 04 00 FE F5 C5 E1  Length = 232000 BitCount = 120 ID = 94
   0.124428 2  94              Rx   d 8 80 00 08 02 00 08 0C 6F  Length = 232000 BitCount = 120 ID = 148
   0.124678 2  702             Rx   d 8 00 00 00 00 00 00 00 00  Length = 242000 BitCount = 125 ID = 1794
   0.126424 1  191             Rx   d 8 04 00 00 00 00 00 00 09  Length = 236000 BitCount = 122 ID = 401
   0.126441 2  6FB             Rx   d 8 F5 05 00 00 00 00 00 00  Length = 236000 BitCount = 122 ID = 1787
   0.126672 1  130             Rx   d 8 00 00 00 00 00 00 01 03  Length = 240000 BitCount = 124 ID = 304
   0.126693 2  6FC             Rx   d 8 00 00 00 00 00 00 00 00  Length = 244000 BitCount = 126 ID = 1788
   0.126945 2  6FF             Rx   d 8 00 00 00 00 00 00 00 00  Length = 244000 BitCount = 126 ID = 1791
   0.127193 2  705             Rx   d 8 00 00 00 00 00 00 B0 29  Length = 240000 BitCount = 124 ID = 1797
   0.127435 2  701             Rx   d 8 B7 02 00 00 00 80 00 30  Length = 234000 BitCount = 121 ID = 1793
   0.127685 2  708             Rx   d 8 00 00 00 00 00 00 00 00  Length = 242000 BitCount = 125 ID = 1800
   0.127927 2  741             Rx   d 8 21 21 0D 00 00 00 38 00  Length = 234000 BitCount = 121 ID = 1857
   0.128425 2  704             Rx   d 8 00 00 00 00 00 00 00 00  Length = 246000 BitCount = 127 ID = 1796
   0.128673 2  721             Rx   d 8 00 00 00 00 00 00 00 00  Length = 240000 BitCount = 124 ID = 1825
   0.129425 2  6FD             Rx   d 8 00 00 00 00 00 00 00 00  Length = 242000 BitCount = 125 ID = 1789
   0.129675 2  722             Rx   d 8 00 00 00 00 00 00 00 00  Length = 242000 BitCount = 125 ID = 1826
   0.129881 2  156             Rx   d 6 00 00 00 00 03 09  Length = 198000 BitCount = 103 ID = 342
   0.130413 1  140             Rx   d 8 80 E5 A1 00 00 00 00 0D  Length = 231036 BitCount = 120 ID = 320
   0.130425 2  706             Rx   d 8 03 00 57 00 56 00 00 00  Length = 232000 BitCount = 120 ID = 1798
   0.130674 2  709             Rx   d 8 00 00 00 00 00 00 00 00  Length = 241032 BitCount = 125 ID = 1801
   0.130920 2  742             Rx   d 8 00 00 00 00 00 00 00 10  Length = 237036 BitCount = 123 ID = 1858
   0.131128 2  156             Rx   d 6 00 00 00 00 07 23  Length = 199040 BitCount = 104 ID = 342
   0.131460 2  703             Rx   d 8 00 00 00 00 00 00 00 00  Length = 242000 BitCount = 125 ID = 1795
   0.131712 2  70A             Rx   d 8 00 00 00 00 00 00 00 00  Length = 244000 BitCount = 126 ID = 1802
   0.132433 1  83              Rx   d 8 00 00 00 00 00 00 00 1C  Length = 240000 BitCount = 124 ID = 131
   0.132444 2  6FE             Rx   d 8 01 00 02 00 00 00 00 00  Length = 240000 BitCount = 124 ID = 1790
   0.132692 2  70B             Rx   d 8 00 00 00 00 00 00 00 00  Length = 240000 BitCount = 124 ID = 1803
   0.133441 1  17C             Rx   d 8 00 00 03 1F 00 00 00 10  Length = 242000 BitCount = 125 ID = 380
   0.133462 2  707             Rx   d 8 00 00 00 00 00 00 00 00  Length = 244000 BitCount = 126 ID = 1799
   0.133647 1  89              Rx   d 6 00 00 00 00 00 16  Length = 198000 BitCount = 103 ID = 137
   0.133712 2  70C             Rx   d 8 00 00 00 00 00 00 00 00  Length = 242000 BitCount = 125 ID = 1804
   0.133948 2  743             Rx   d 8 6E E0 06 32 32 00 00 10  Length = 228000 BitCount = 118 ID = 1859
   0.134188 2  5E              Rx   d 8 80 00 04 00 FE F5 C5 E1  Length = 232000 BitCount = 120 ID = 94
   0.134430 2  94              Rx   d 8 80 00 08 02 00 08 0C 7E  Length = 234000 BitCount = 121 ID = 148
   0.134680 2  702             Rx   d 8 00 00 00 00 00 00 00 00  Length = 242000 BitCount = 125 ID = 1794
   0.136438 1  191             Rx   d 8 04 00 00 00 00 00 00 18  Length = 236000 BitCount = 122 ID = 401
   0.136455 2  6FB             Rx   d 8 F5 05 00 00 00 00 00 00  Length = 235036 BitCount = 122 ID = 1787
   0.136684 1  130             Rx   d 8 00 00 00 00 00 00 01 12  Length = 238000 BitCount = 123 ID = 304
   0.136707 2  6FC             Rx   d 8 00 00 00 00 00 00 00 00  Length = 244000 BitCount = 126 ID = 1788
   0.136959 2  6FF             Rx   d 8 00 00 00 00 00 00 00 00  Length = 244000 BitCount = 126 ID = 1791
   0.137207 2  705             Rx   d 8 00 00 00 00 00 00 B0 29  Length = 240000 BitCount = 124 ID = 1797
   0.137449 2  701             Rx   d 8 B7 02 00 00 00 80 00 30  Length = 234000 BitCount = 121 ID = 1793
   0.137699 2  708             Rx   d 8 00 00 00 00 00 00 00 00  Length = 242000 BitCount = 125 ID = 1800
   0.137941 2  741             Rx   d 8 38 32 0F 0F 1E 08 08 10  Length = 234000 BitCount = 121 ID = 1857
   0.138427 2  704             Rx   d 8 00 00 00 00 00 00 00 00  Length = 246000 BitCount = 127 ID = 1796
   0.138675 2  721             Rx   d 8 00 00 00 00 00 00 00 00  Length = 240000 BitCount = 124 ID = 1825
   0.139423 2  6FD             Rx   d 8 00 00 00 00 00 00 00 00  Length = 242000 BitCount = 125 ID = 1789
   0.139673 2  722             Rx   d 8 00 00 00 00 00 00 00 00  Length = 242000 BitCount = 125 ID = 1826
   0.139881 2  156             Rx   d 6 00 00 00 00 03 18  Length = 200000 BitCount = 104 ID = 342
   0.140413 1  140             Rx   d 8 80 E5 A1 00 00 00 00 1C  Length = 231036 BitCount = 120 ID = 320
   0.140425 2  706             Rx   d 8 03 00 57 00 56 00 00 00  Length = 232000 BitCount = 120 ID = 1798
   0.140675 2  709             Rx   d 8 00 00 00 00 00 00 00 00  Length = 242000 BitCount = 125 ID = 1801
   0.140911 2  742             Rx   d 8 78 80 07 90 01 05 05 05  Length = 228000 BitCount = 118 ID = 1858
   0.141116 2  156             Rx   d 6 00 00 00 00 07 32  Length = 197040 BitCount = 103 ID = 342
   0.141426 2  703             Rx   d 8 00 00 00 00 00 00 00 00  Length = 241032 BitCount = 125 ID = 1795
   0.141678 2  70A             Rx   d 8 00 00 00 00 00 00 00 00  Length = 243032 BitCount = 126 ID = 1802
   0.142453 1  324             Rx   d 8 28 28 00 00 00 00 00 29  Length = 238000 BitCount = 123 ID = 804
   0.142470 2  6FE             Rx   d 8 01 00 02 00 00 00 00 00  Length = 240000 BitCount = 124 ID = 1790
   0.142703 1  83              Rx   d 8 00 00 00 00 00 00 00 2B  Length = 242000 BitCount = 125 ID = 131
   0.142718 2  70B             Rx   d 8 00 00 00 00 00 00 00 00  Length = 240000 BitCount = 124 ID = 1803
   0.143455 1  17C             Rx   d 8 00 00 03 1F 00 00 00 2F  Length = 240000 BitCount = 124 ID = 380
   0.143474 2  707             Rx   d 8 00 00 00 00 00 00 00 00  Length = 244000 BitCount = 126 ID = 1799
   0.143663 1  89              Rx   d 6 00 00 00 00 00 25  Length = 200000 BitCount = 104 ID = 137
   0.143724 2  70C             Rx   d 8 00 00 00 00 00 00 00 00  Length = 242000 BitCount = 125 ID = 1804
   0.143956 2  743             Rx   d 8 A5 50 0A FA A0 0F 08 02  Length = 224000 BitCount = 116 ID = 1859
   0.144196 2  5E              Rx   d 8 80 00 04 00 FE F5 C5 E1  Length = 232000 BitCount = 120 ID = 94
   0.144436 2  94              Rx   d 8 80 00 08 02 00 08 0C 41  Length = 232000 BitCount = 120 ID = 148
   0.144686 2  702             Rx   d 8 00 00 00 00 00 00 00 00  Length = 242000 BitCount = 125 ID = 1794
   0.146420 1  191             Rx   d 8 04 00 00 00 00 00 00 27  Length = 236000 BitCount = 122 ID = 401
   0.146435 2  6FB             Rx   d 8 F5 05 00 00 00 00 00 00  Length = 235036 BitCount = 122 ID = 1787
   0.146668 1  130             Rx   d 8 00 00 00 00 00 00 01 21  Length = 240000 BitCount = 124 ID = 304
   0.146687 2  6FC             Rx   d 8 00 00 00 00 00 00 00 00  Length = 243032 BitCount = 126 ID = 1788
   0.146939 2  6FF             Rx   d 8 00 00 00 00 00 00 00 00  Length = 244000 BitCount = 126 ID = 1791
   0.147187 2  705             Rx   d 8 00 00 00 00 00 00 B0 29  Length = 240000 BitCount = 124 ID = 1797
   0.147429 2  701             Rx   d 8 B8 02 00 00 00 80 00 30  Length = 234000 BitCount = 121 ID = 1793
   0.147679 2  708             Rx   d 8 00 00 00 00 00 00 00 00  Length = 242000 BitCount = 125 ID = 1800
   0.147927 2  741             Rx   d 8 08 00 00 00 00 00 00 20  Length = 240000 BitCount = 124 ID = 1857
   0.148418 1  326             Rx   d 8 00 00 00 00 00 00 40 27  Length = 240000 BitCount = 124 ID = 806
   0.148435 2  704             Rx   d 8 00 00 00 00 00 00 00 00  Length = 246000 BitCount = 127 ID = 1796
   0.148683 2  721             Rx   d 8 00 00 00 00 00 00 00 00  Length = 240000 BitCount = 124 ID = 1825
   0.149434 1  374             Rx   d 8 28 00 00 00 00 00 00 2E  Length = 240000 BitCount = 124 ID = 884
   0.149445 2  6FD             Rx   d 8 00 00 00 00 00 00 00 00  Length = 242000 BitCount = 125 ID = 1789
   0.149695 2  722             Rx   d 8 00 00 00 00 00 00 00 00  Length = 242000 BitCount = 125 ID = 1826
   0.149901 2  156             Rx   d 6 00 00 00 00 03 27  Length = 198000 BitCount = 103 ID = 342
   0.150414 1  140             Rx   d 8 80 E5 A1 00 00 00 00 2B  Length = 232000 BitCount = 120 ID = 320
   0.150431 2  706             Rx   d 8 04 00 57 00 56 00 00 00  Length = 238000 BitCount = 123 ID = 1798
   0.150681 2  709             Rx   d 8 00 00 00 00 00 00 00 00  Length = 242000 BitCount = 125 ID = 1801
   0.150927 2  742             Rx   d 8 00 00 00 00 00 00 00 10  Length = 238000 BitCount = 123 ID = 1858
   0.151135 2  156             Rx   d 6 00 00 00 00 07 05  Length = 200000 BitCount = 104 ID = 342
   0.151426 2  703             Rx   d 8 00 00 00 00 00 00 00 00  Length = 241032 BitCount = 125 ID = 1795
   0.151678 2  70A             Rx   d 8 00 00 00 00 00 00 00 00  Length = 243032 BitCount = 126 ID = 1802
   0.152415 1  83              Rx   d 8 00 00 00 00 00 00 00 3A  Length = 242000 BitCount = 125 ID = 131
   0.152424 2  6FE             Rx   d 8 01 00 03 00 00 00 00 00  Length = 240000 BitCount = 124 ID = 1790
   0.152672 2  70B             Rx   d 8 00 00 00 00 00 00 00 00  Length = 240000 BitCount = 124 ID = 1803
   0.153473 1  17C             Rx   d 8 00 00 03 1F 00 00 00 3E  Length = 242000 BitCount = 125 ID = 380
   0.153490 2  707             Rx   d 8 00 00 00 00 00 00 00 00  Length = 244000 BitCount = 126 ID = 1799
   0.153683 1  89              Rx   d 6 00 00 00 00 00 34  Length = 202000 BitCount = 105 ID = 137
   0.153740 2  70C             Rx   d 8 00 00 00 00 00 00 00 00  Length = 242000 BitCount = 125 ID = 1804
   0.153976 2  743             Rx   d 8 6E E0 06 32 32 00 00 10  Length = 228000 BitCount = 118 ID = 1859
   0.154216 2  5E              Rx   d 8 80 00 04 00 FE F5 C5 E1  Length = 232000 BitCount = 120 ID = 94
   0.154458 2  94              Rx   d 8 80 00 08 02 00 08 0C 50  Length = 234000 BitCount = 121 ID = 148
   0.154708 2  702             Rx   d 8 00 00 00 00 00 00 00 00  Length = 242000 BitCount = 125 ID = 1794
   0.156420 1  191             Rx   d 8 04 00 00 00 00 00 00 36  Length = 235036 BitCount = 122 ID = 401
   0.156436 2  6FB             Rx   d 8 F5 05 00 00 00 00 00 00  Length = 236000 BitCount = 122 ID = 1787
   0.156668 1  130             Rx   d 8 00 00 00 00 00 00 01 30  Length = 240000 BitCount = 124 ID = 304
   0.156687 2  6FC             Rx   d 8 00 00 00 00 00 00 00 00  Length = 243032 BitCount = 126 ID = 1788
   0.156939 2  6FF             Rx   d 8 00 00 00 00 00 00 00 00  Length = 243032 BitCount = 126 ID = 1791
   0.157187 2  705             Rx   d 8 00 00 00 00 00 00 B0 29  Length = 239036 BitCount = 124 ID = 1797
   0.157429 2  701             Rx   d 8 B7 02 00 00 00 80 00 30  Length = 234000 BitCount = 121 ID = 1793
   0.157679 2  708             Rx   d 8 00 00 00 00 00 00 00 00  Length = 242000 BitCount = 125 ID = 1800
   0.157921 2  741             Rx   d 8 21 21 0D 00 00 00 38 00  Length = 234000 BitCount = 121 ID = 1857
   0.158427 2  704             Rx   d 8 00 00 00 00 00 00 00 00  Length = 246000 BitCount = 127 ID = 1796
   0.158675 2  721             Rx   d 8 00 00 00 00 00 00 00 00  Length = 240000 BitCount = 124 ID = 1825
   0.159425 2  6FD             Rx   d 8 00 00 00 00 00 00 00 00  Length = 242000 BitCount = 125 ID = 1789
   0.159675 2  722             Rx   d 8 00 00 00 00 00 00 00 00  Length = 242000 BitCount = 125 ID = 1826
   0.159881 2  156             Rx   d 6 00 00 00 00 03 36  Length = 198000 BitCount = 103 ID = 342
   0.160406 1  140             Rx   d 8 80 E5 A1 00 00 00 00 3A  Length = 230000 BitCount = 119 ID = 320
   0.160423 2  706             Rx   d 8 04 00 57 00 56 00 00 00  Length = 238000 BitCount = 123 ID = 1798
   0.160673 2  709             Rx   d 8 00 00 00 00 00 00 00 00  Length = 242000 BitCount = 125 ID = 1801
   0.160909 2  742             Rx   d 8 78 80 07 90 01 05 05 05  Length = 228000 BitCount = 118 ID = 1858
   0.161117 2  156             Rx   d 6 00 00 00 00 07 14  Length = 200000 BitCount = 104 ID = 342
   0.161427 2  703             Rx   d 8 00 00 00 00 00 00 00 00  Length = 242000 BitCount = 125 ID = 1795
   0.161679 2  70A             Rx   d 8 00 00 00 00 00 00 00 00  Length = 244000 BitCount = 126 ID = 1802
   0.162413 1  83              Rx   d 8 00 00 00 00 00 00 00 0D  Length = 240000 BitCount = 124 ID = 131
   0.162424 2  6FE             Rx   d 8 01 00 03 00 00 00 00 00  Length = 239036 BitCount = 124 ID = 1790
   0.162672 2  70B             Rx   d 8 00 00 00 00 00 00 00 00  Length = 240000 BitCount = 124 ID = 1803
   0.163473 1  17C             Rx   d 8 00 00 03 1F 00 00 00 01  Length = 244000 BitCount = 126 ID = 380
   0.163488 2  707             Rx   d 8 00 00 00 00 00 00 00 00  Length = 244000 BitCount = 126 ID = 1799
   0.163683 1  89              Rx   d 6 00 00 00 00 00 07  Length = 202000 BitCount = 105 ID = 137
   0.163738 2  70C             Rx   d 8 00 00 00 00 00 00 00 00  Length = 242000 BitCount = 125 ID = 1804
   0.163970 2  743             Rx   d 8 A5 50 0A FA A0 0F 08 02  Length = 224000 BitCount = 116 ID = 1859
   0.164210 2  5E              Rx   d 8 80 00 04 00 FE F5 C5 E1  Length = 232000 BitCount = 120 ID = 94
   0.164450 2  94              Rx   d 8 80 00 08 02 00 08 0C 6F  Length = 232000 BitCount = 120 ID = 148
   0.164700 2  702             Rx   d 8 00 00 00 00 00 00 00 00  Length = 242000 BitCount = 125 ID = 1794
   0.166420 1  191             Rx   d 8 04 00 00 00 00 00 00 09  Length = 235036 BitCount = 122 ID = 401
   0.166436 2  6FB             Rx   d 8 F5 05 00 00 00 00 00 00  Length = 236000 BitCount = 122 ID = 1787
   0.166668 1  130             Rx   d 8 00 00 00 00 00 00 01 03  Length = 239036 BitCount = 124 ID = 304
   0.166688 2  6FC             Rx   d 8 00 00 00 00 00 00 00 00  Length = 244000 BitCount = 126 ID = 1788
   0.166940 2  6FF             Rx   d 8 00 00 00 00 00 00 00 00  Length = 244000 BitCount = 126 ID = 1791
   0.167187 2  705             Rx   d 8 00 00 00 00 00 00 B0 29  Length = 239036 BitCount = 124 ID = 1797
   0.167429 2  701             Rx   d 8 B7 02 00 00 00 80 00 30  Length = 233036 BitCount = 121 ID = 1793
   0.167679 2  708             Rx   d 8 00 00 00 00 00 00 00 00  Length = 241032 BitCount = 125 ID = 1800
   0.167921 2  741             Rx   d 8 38 32 0F 0F 1E 08 08 10  Length = 234000 BitCount = 121 ID = 1857
   0.168423 2  704             Rx   d 8 00 00 00 00 00 00 00 00  Length = 246000 BitCount = 127 ID = 1796
   0.168671 2  721             Rx   d 8 00 00 00 00 00 00 00 00  Length = 240000 BitCount = 124 ID = 1825
   0.169419 2  6FD             Rx   d 8 00 00 00 00 00 00 00 00  Length = 242000 BitCount = 125 ID = 1789
   0.169669 2  722             Rx   d 8 00 00 00 00 00 00 00 00  Length = 242000 BitCount = 125 ID = 1826
   0.169875 2  156             Rx   d 6 00 00 00 00 03 09  Length = 198000 BitCount = 103 ID = 342
   0.170408 1  140             Rx   d 8 80 E5 A1 00 00 00 00 0D  Length = 232000 BitCount = 120 ID = 320
   0.170421 2  706             Rx   d 8 06 00 57 00 56 00 00 00  Length = 234000 BitCount = 121 ID = 1798
   0.170671 2  709             Rx   d 8 00 00 00 00 00 00 00 00  Length = 242000 BitCount = 125 ID = 1801
   0.170917 2  742             Rx   d 8 00 00 00 00 00 00 00 10  Length = 238000 BitCount = 123 ID = 1858
   0.171125 2  156             Rx   d 6 00 00 00 00 07 23  Length = 200000 BitCount = 104 ID = 342
   0.171425 2  703             Rx   d 8 00 00 00 00 00 00 00 00  Length = 242000 BitCount = 125 ID = 1795
   0.171677 2  70A             Rx   d 8 00 00 00 00 00 00 00 00  Length = 244000 BitCount = 126 ID = 1802
   0.172419 1  83              Rx   d 8 00 00 00 00 00 00 00 1C  Length = 240000 BitCount = 124 ID = 131
   0.172430 2  6FE             Rx   d 8 01 00 04 00 00 00 00 00  Length = 239036 BitCount = 124 ID = 1790
   0.172678 2  70B             Rx   d 8 00 00 00 00 00 00 00 00  Length = 239036 BitCount = 124 ID = 1803
   0.173433 1  17C             Rx   d 8 00 00 03 1F 00 00 00 10  Length = 242000 BitCount = 125 ID = 380
   0.173450 2  707             Rx   d 8 00 00 00 00 00 00 00 00  Length = 244000 BitCount = 126 ID = 1799
   0.173639 1  89              Rx   d 6 00 00 00 00 00 16  Length = 198000 BitCount = 103 ID = 137
   0.173700 2  70C             Rx   d 8 00 00 00 00 00 00 00 00  Length = 242000 BitCount = 125 ID = 1804
   0.173936 2  743             Rx   d 8 6E E0 06 32 32 00 00 10  Length = 228000 BitCount = 118 ID = 1859
   0.174176 2  5E              Rx   d 8 80 00 04 00 FE F5 C5 E1  Length = 232000 BitCount = 120 ID = 94
   0.174418 2  94              Rx   d 8 80 00 08 02 00 08 0C 7E  Length = 234000 BitCount = 121 ID = 148
   0.174668 2  702             Rx   d 8 00 00 00 00 00 00 00 00  Length = 242000 BitCount = 125 ID = 1794
   0.176433 1  191             Rx   d 8 04 00 00 00 00 00 00 18  Length = 236000 BitCount = 122 ID = 401
   0.176448 2  6FB             Rx   d 8 F5 05 00 00 00 00 00 00  Length = 236000 BitCount = 122 ID = 1787
   0.176679 1  130             Rx   d 8 00 00 00 00 00 00 01 12  Length = 238000 BitCount = 123 ID = 304
   0.176700 2  6FC             Rx   d 8 00 00 00 00 00 00 00 00  Length = 244000 BitCount = 126 ID = 1788
   0.176952 2  6FF             Rx   d 8 00 00 00 00 00 00 00 00  Length = 244000 BitCount = 126 ID = 1791
   0.177200 2  705             Rx   d 8 00 00 00 00 00 00 B0 29  Length = 240000 BitCount = 124 ID = 1797
   0.177441 2  701             Rx   d 8 B7 02 00 00 00 80 00 30  Length = 233036 BitCount = 121 ID = 1793
   0.177691 2  708             Rx   d 8 00 00 00 00 00 00 00 00  Length = 241032 BitCount = 125 ID = 1800
   0.177939 2  741             Rx   d 8 08 00 00 00 00 00 00 20  Length = 239036 BitCount = 124 ID = 1857
   0.178423 2  704             Rx   d 8 00 00 00 00 00 00 00 00  Length = 246000 BitCount = 127 ID = 1796
   0.178671 2  721             Rx   d 8 00 00 00 00 00 00 00 00  Length = 240000 BitCount = 124 ID = 1825
   0.179417 2  6FD             Rx   d 8 00 00 00 00 00 00 00 00  Length = 242000 BitCount = 125 ID = 1789
   0.179667 2  722             Rx   d 8 00 00 00 00 00 00 00 00  Length = 242000 BitCount = 125 ID = 1826
   0.179875 2  156             Rx   d 6 00 00 00 00 03 18  Length = 200000 BitCount = 104 ID = 342
   0.180412 1  140             Rx   d 8 80 E5 A1 00 00 00 00 1C  Length = 232000 BitCount = 120 ID = 320
   0.180425 2  706             Rx   d 8 06 00 57 00 56 00 00 00  Length = 234000 BitCount = 121 ID = 1798
   0.180675 2  709             Rx   d 8 00 00 00 00 00 00 00 00  Length = 242000 BitCount = 125 ID = 1801
   0.180911 2  742             Rx   d 8 78 80 07 90 01 05 05 05  Length = 228000 BitCount = 118 ID = 1858
   0.181117 2  156             Rx   d 6 00 00 00 00 07 32  Length = 198000 BitCount = 103 ID = 342
   0.181429 2  703             Rx   d 8 00 00 00 00 00 00 00 00  Length = 242000 BitCount = 125 ID = 1795
   0.181681 2  70A             Rx   d 8 00 00 00 00 00 00 00 00  Length = 244000 BitCount = 126 ID = 1802
   0.182417 1  83              Rx   d 8 00 00 00 00 00 00 00 2B  Length = 241032 BitCount = 125 ID = 131
   0.182425 2  6FE             Rx   d 8 02 00 04 00 00 00 00 00  Length = 238000 BitCount = 123 ID = 1790
   0.182672 2  70B             Rx   d 8 00 00 00 00 00 00 00 00  Length = 239036 BitCount = 124 ID = 1803
   0.183429 1  17C             Rx   d 8 00 00 03 1F 00 00 00 2F  Length = 240000 BitCount = 124 ID = 380
   0.183448 2  707             Rx   d 8 00 00 00 00 00 00 00 00  Length = 244000 BitCount = 126 ID = 1799
   0.183637 1  89              Rx   d 6 00 00 00 00 00 25  Length = 200000 BitCount = 104 ID = 137
   0.183698 2  70C             Rx   d 8 00 00 00 00 00 00 00 00  Length = 242000 BitCount = 125 ID = 1804
   0.183930 2  743             Rx   d 8 A5 50 0A FA A0 0F 08 02  Length = 224000 BitCount = 116 ID = 1859
   0.184170 2  5E              Rx   d 8 80 00 04 00 FE F5 C5 E1  Length = 232000 BitCount = 120 ID = 94
   0.184410 2  94              Rx   d 8 80 00 08 02 00 08 0C 41  Length = 232000 BitCount = 120 ID = 148
   0.184660 2  702             Rx   d 8 00 00 00 00 00 00 00 00  Length = 242000 BitCount = 125 ID = 1794
   0.186429 1  191             Rx   d 8 04 00 00 00 00 00 00 27  Length = 236000 BitCount = 122 ID = 401
   0.186446 2  6FB             Rx   d 8 F5 05 00 00 00 00 00 00  Length = 236000 BitCount = 122 ID = 1787
   0.186677 1  130             Rx   d 8 00 00 00 00 00 00 01 21  Length = 240000 BitCount = 124 ID = 304
   0.186698 2  6FC             Rx   d 8 00 00 00 00 00 00 00 00  Length = 244000 BitCount = 126 ID = 1788
   0.186950 2  6FF             Rx   d 8 00 00 00 00 00 00 00 00  Length = 244000 BitCount = 126 ID = 1791
   0.187198 2  705             Rx   d 8 00 00 00 00 00 00 B0 29  Length = 240000 BitCount = 124 ID = 1797
   0.187440 2  701             Rx   d 8 B8 02 00 00 00 80 00 30  Length = 234000 BitCount = 121 ID = 1793
   0.187690 2  708             Rx   d 8 00 00 00 00 00 00 00 00  Length = 242000 BitCount = 125 ID = 1800
   0.187931 2  741             Rx   d 8 21 21 0D 00 00 00 38 00  Length = 233036 BitCount = 121 ID = 1857
   0.188573 2  704             Rx   d 8 00 00 00 00 00 00 00 00  Length = 246000 BitCount = 127 ID = 1796
   0.188821 2  721             Rx   d 8 00 00 00 00 00 00 00 00  Length = 240000 BitCount = 124 ID = 1825
   0.189445 2  6FD             Rx   d 8 00 00 00 00 00 00 00 00  Length = 242000 BitCount = 125 ID = 1789
   0.189695 2  722             Rx   d 8 00 00 00 00 00 00 00 00  Length = 242000 BitCount = 125 ID = 1826
   0.189901 2  156             Rx   d 6 00 00 00 00 03 27  Length = 198000 BitCount = 103 ID = 342
   0.190418 1  140             Rx   d 8 80 E5 A1 00 00 00 00 2B  Length = 232000 BitCount = 120 ID = 320
   0.190431 2  706             Rx   d 8 06 00 57 00 56 00 00 00  Length = 234000 BitCount = 121 ID = 1798
   0.190681 2  709             Rx   d 8 00 00 00 00 00 00 00 00  Length = 242000 BitCount = 125 ID = 1801
   0.190927 2  742             Rx   d 8 00 00 00 00 00 00 00 10  Length = 238000 BitCount = 123 ID = 1858
   0.191135 2  156             Rx   d 6 00 00 00 00 07 05  Length = 200000 BitCount = 104 ID = 342
   0.191427 2  703             Rx   d 8 00 00 00 00 00 00 00 00  Length = 242000 BitCount = 125 ID = 1795
   0.191679 2  70A             Rx   d 8 00 00 00 00 00 00 00 00  Length = 244000 BitCount = 126 ID = 1802
   0.192421 1  83              Rx   d 8 00 00 00 00 00 00 00 3A  Length = 241032 BitCount = 125 ID = 131
   0.192429 2  6FE             Rx   d 8 02 00 04 00 00 00 00 00  Length = 238000 BitCount = 123 ID = 1790
   0.192677 2  70B             Rx   d 8 00 00 00 00 00 00 00 00  Length = 240000 BitCount = 124 ID = 1803
   0.193445 1  17C             Rx   d 8 00 00 03 1F 00 00 00 3E  Length = 242000 BitCount = 125 ID = 380
   0.193462 2  707             Rx   d 8 00 00 00 00 00 00 00 00  Length = 243032 BitCount = 126 ID = 1799
   0.193655 1  89              Rx   d 6 00 00 00 00 00 34  Length = 202000 BitCount = 105 ID = 137
   0.193712 2  70C             Rx   d 8 00 00 00 00 00 00 00 00  Length = 242000 BitCount = 125 ID = 1804
   0.193948 2  743             Rx   d 8 6E E0 06 32 32 00 00 10  Length = 228000 BitCount = 118 ID = 1859
   0.194188 2  5E              Rx   d 8 80 00 04 00 FE F5 C5 E1  Length = 232000 BitCount = 120 ID = 94
   0.194430 2  94              Rx   d 8 80 00 08 02 00 08 0C 50  Length = 234000 BitCount = 121 ID = 148
   0.194680 2  702             Rx   d 8 00 00 00 00 00 00 00 00  Length = 242000 BitCount = 125 ID = 1794
   0.196439 1  191             Rx   d 8 04 00 00 00 00 00 00 36  Length = 236000 BitCount = 122 ID = 401
   0.196454 2  6FB             Rx   d 8 F5 05 00 00 00 00 00 00  Length = 236000 BitCount = 122 ID = 1787
   0.196687 1  130             Rx   d 8 00 00 00 00 00 00 01 30  Length = 240000 BitCount = 124 ID = 304
   0.196706 2  6FC             Rx   d 8 00 00 00 00 00 00 00 00  Length = 244000 BitCount = 126 ID = 1788
   0.196958 2  6FF             Rx   d 8 00 00 00 00 00 00 00 00  Length = 244000 BitCount = 126 ID = 1791
   0.197206 2  705             Rx   d 8 00 00 00 00 00 00 B0 29  Length = 240000 BitCount = 124 ID = 1797
   0.197448 2  701             Rx   d 8 B8 02 00 00 00 80 00 30  Length = 234000 BitCount = 121 ID = 1793
   0.197698 2  708             Rx   d 8 00 00 00 00 00 00 00 00  Length = 242000 BitCount = 125 ID = 1800
   0.197940 2  741             Rx   d 8 38 32 0F 0F 1E 08 08 10  Length = 234000 BitCount = 121 ID = 1857
   0.198425 2  704             Rx   d 8 00 00 00 00 00 00 00 00  Length = 245032 BitCount = 127 ID = 1796
   0.198673 2  721             Rx   d 8 00 00 00 00 00 00 00 00  Length = 239036 BitCount = 124 ID = 1825
   0.199413 2  6FD             Rx   d 8 00 00 00 00 00 00 00 00  Length = 242000 BitCount = 125 ID = 1789
   0.199663 2  722             Rx   d 8 00 00 00 00 00 00 00 00  Length = 242000 BitCount = 125 ID = 1826
   0.199869 2  156             Rx   d 6 00 00 00 00 03 36  Length = 198000 BitCount = 103 ID = 342
   0.200408 1  140             Rx   d 8 80 E5 A1 00 00 00 00 3A  Length = 230000 BitCount = 119 ID = 320
   0.200423 2  706             Rx   d 8 06 00 57 01 56 00 00 00  Length = 234000 BitCount = 121 ID = 1798
   0.200673 2  709             Rx   d 8 00 00 00 00 00 00 00 00  Length = 242000 BitCount = 125 ID = 1801
   0.200909 2  742             Rx   d 8 78 80 07 90 01 05 05 05  Length = 228000 BitCount = 118 ID = 1858
   0.201117 2  156             Rx   d 6 00 00 00 00 07 14  Length = 200000 BitCount = 104 ID = 342
   0.201421 2  703             Rx   d 8 00 00 00 00 00 00 00 00  Length = 242000 BitCount = 125 ID = 1795
   0.201673 2  70A             Rx   d 8 00 00 00 00 00 00 00 00  Length = 244000 BitCount = 126 ID = 1802
   0.202410 1  83              Rx   d 8 00 00 00 00 00 00 00 0D  Length = 240000 BitCount = 124 ID = 131
   0.202419 2  6FE             Rx   d 8 02 00 04 00 00 00 00 00  Length = 238000 BitCount = 123 ID = 1790
   0.202667 2  70B             Rx   d 8 00 00 00 00 00 00 00 00  Length = 240000 BitCount = 124 ID = 1803
   0.203427 1  17C             Rx   d 8 00 00 03 1F 00 00 00 01  Length = 244000 BitCount = 126 ID = 380
   0.203442 2  707             Rx   d 8 00 00 00 00 00 00 00 00  Length = 243032 BitCount = 126 ID = 1799
   0.203637 1  89              Rx   d 6 00 00 00 00 00 07  Length = 202000 BitCount = 105 ID = 137
   0.203692 2  70C             Rx   d 8 00 00 00 00 00 00 00 00  Length = 241032 BitCount = 125 ID = 1804
   0.203924 2  743             Rx   d 8 A5 50 0A FA A0 0F 08 02  Length = 223036 BitCount = 116 ID = 1859
   0.204164 2  5E              Rx   d 8 80 00 04 00 FE F5 C5 E1  Length = 232000 BitCount = 120 ID = 94
   0.204404 2  94              Rx   d 8 80 00 08 02 00 08 0C 6F  Length = 232000 BitCount = 120 ID = 148
   0.204654 2  702             Rx   d 8 00 00 00 00 00 00 00 00  Length = 242000 BitCount = 125 ID = 1794
   0.206431 1  191             Rx   d 8 04 00 00 00 00 00 00 09  Length = 236000 BitCount = 122 ID = 401
   0.206448 2  6FB             Rx   d 8 F5 05 00 00 00 00 00 00  Length = 236000 BitCount = 122 ID = 1787
   0.206679 1  130             Rx   d 8 00 00 00 00 00 00 01 03  Length = 240000 BitCount = 124 ID = 304
   0.206700 2  6FC             Rx   d 8 00 00 00 00 00 00 00 00  Length = 244000 BitCount = 126 ID = 1788
   0.206952 2  6FF             Rx   d 8 00 00 00 00 00 00 00 00  Length = 244000 BitCount = 126 ID = 1791
   0.207200 2  705             Rx   d 8 00 00 00 00 00 00 B0 29  Length = 240000 BitCount = 124 ID = 1797
   0.207442 2  701             Rx   d 8 B7 02 00 00 00 80 00 30  Length = 234000 BitCount = 121 ID = 1793
   0.207692 2  708             Rx   d 8 00 00 00 00 00 00 00 00  Length = 242000 BitCount = 125 ID = 1800
   0.207940 2  741             Rx   d 8 08 00 00 00 00 00 00 20  Length = 240000 BitCount = 124 ID = 1857
   0.208428 2  704             Rx   d 8 00 00 00 00 00 00 00 00  Length = 246000 BitCount = 127 ID = 1796
   0.208675 2  721             Rx   d 8 00 00 00 00 00 00 00 00  Length = 239036 BitCount = 124 ID = 1825
   0.209419 2  6FD             Rx   d 8 00 00 00 00 00 00 00 00  Length = 242000 BitCount = 125 ID = 1789
   0.209669 2  722             Rx   d 8 00 00 00 00 00 00 00 00  Length = 242000 BitCount = 125 ID = 1826
   0.209875 2  156             Rx   d 6 00 00 00 00 03 09  Length = 198000 BitCount = 103 ID = 342
   0.210412 1  140             Rx   d 8 80 E5 A1 00 00 00 00 0D  Length = 232000 BitCount = 120 ID = 320
   0.210423 2  706             Rx   d 8 06 00 57 00 56 00 00 00  Length = 234000 BitCount = 121 ID = 1798
   0.210673 2  709             Rx   d 8 00 00 00 00 00 00 00 00  Length = 242000 BitCount = 125 ID = 1801
   0.210919 2  742             Rx   d 8 00 00 00 00 00 00 00 10  Length = 238000 BitCount = 123 ID = 1858
   0.211127 2  156             Rx   d 6 00 00 00 00 07 23  Length = 200000 BitCount = 104 ID = 342
   0.211421 2  703             Rx   d 8 00 00 00 00 00 00 00 00  Length = 242000 BitCount = 125 ID = 1795
   0.211673 2  70A             Rx   d 8 00 00 00 00 00 00 00 00  Length = 244000 BitCount = 126 ID = 1802
   0.212412 1  83              Rx   d 8 00 00 00 00 00 00 00 1C  Length = 240000 BitCount = 124 ID = 131
   0.212423 2  6FE             Rx   d 8 01 00 04 00 00 00 00 00  Length = 240000 BitCount = 124 ID = 1790
   0.212671 2  70B             Rx   d 8 00 00 00 00 00 00 00 00  Length = 240000 BitCount = 124 ID = 1803
   0.213431 1  17C             Rx   d 8 00 00 03 1F 00 00 00 10  Length = 241032 BitCount = 125 ID = 380
   0.213449 2  707             Rx   d 8 00 00 00 00 00 00 00 00  Length = 244000 BitCount = 126 ID = 1799
   0.213637 1  89              Rx   d 6 00 00 00 00 00 16  Length = 197040 BitCount = 103 ID = 137
   0.213699 2  70C             Rx   d 8 00 00 00 00 00 00 00 00  Length = 242000 BitCount = 125 ID = 1804
   0.213934 2  743             Rx   d 8 6E E0 06 32 32 00 00 10  Length = 227036 BitCount = 118 ID = 1859
   0.214174 2  5E              Rx   d 8 80 00 04 00 FE F5 C5 E1  Length = 231036 BitCount = 120 ID = 94
   0.214416 2  94              Rx   d 8 80 00 08 02 00 08 0C 7E  Length = 234000 BitCount = 121 ID = 148
   0.214666 2  702             Rx   d 8 00 00 00 00 00 00 00 00  Length = 242000 BitCount = 125 ID = 1794
   0.216447 1  191             Rx   d 8 04 00 00 00 00 00 00 18  Length = 236000 BitCount = 122 ID = 401
   0.216462 2  6FB             Rx   d 8 F5 05 00 00 00 00 00 00  Length = 236000 BitCount = 122 ID = 1787
   0.216693 1  130             Rx   d 8 00 00 00 00 00 00 01 12  Length = 238000 BitCount = 123 ID = 304
   0.216714 2  6FC             Rx   d 8 00 00 00 00 00 00 00 00  Length = 244000 BitCount = 126 ID = 1788
   0.216966 2  6FF             Rx   d 8 00 00 00 00 00 00 00 00  Length = 244000 BitCount = 126 ID = 1791
   0.217214 2  705             Rx   d 8 00 00 00 00 00 00 B0 29  Length = 240000 BitCount = 124 ID = 1797
   0.217456 2  701             Rx   d 8 B8 02 00 00 00 80 00 30  Length = 234000 BitCount = 121 ID = 1793
   0.217706 2  708             Rx   d 8 00 00 00 00 00 00 00 00  Length = 242000 BitCount = 125 ID = 1800
   0.217948 2  741             Rx   d 8 21 21 0D 00 00 00 38 00  Length = 234000 BitCount = 121 ID = 1857
   0.218420 2  704             Rx   d 8 00 00 00 00 00 00 00 00  Length = 246000 BitCount = 127 ID = 1796
   0.218668 2  721             Rx   d 8 00 00 00 00 00 00 00 00  Length = 240000 BitCount = 124 ID = 1825
   0.219417 2  6FD             Rx   d 8 00 00 00 00 00 00 00 00  Length = 241032 BitCount = 125 ID = 1789
   0.219667 2  722             Rx   d 8 00 00 00 00 00 00 00 00  Length = 242000 BitCount = 125 ID = 1826
   0.219875 2  156             Rx   d 6 00 00 00 00 03 18  Length = 200000 BitCount = 104 ID = 342
   0.220412 1  140             Rx   d 8 80 E5 A1 00 00 00 00 1C  Length = 232000 BitCount = 120 ID = 320
   0.220421 2  706             Rx   d 8 06 00 57 18 56 00 00 00  Length = 232000 BitCount = 120 ID = 1798
   0.220671 2  709             Rx   d 8 00 00 00 00 00 00 00 00  Length = 242000 BitCount = 125 ID = 1801
   0.220907 2  742             Rx   d 8 78 80 07 90 01 05 05 05  Length = 228000 BitCount = 118 ID = 1858
   0.221113 2  156             Rx   d 6 00 00 00 00 07 32  Length = 198000 BitCount = 103 ID = 342
   0.221421 2  703             Rx   d 8 00 00 00 00 00 00 00 00  Length = 242000 BitCount = 125 ID = 1795
   0.221673 2  70A             Rx   d 8 00 00 00 00 00 00 00 00  Length = 244000 BitCount = 126 ID = 1802
   0.222412 1  83              Rx   d 8 00 00 00 00 00 00 00 2B  Length = 242000 BitCount = 125 ID = 131
   0.222421 2  6FE             Rx   d 8 01 00 04 00 00 00 00 00  Length = 240000 BitCount = 124 ID = 1790
   0.222669 2  70B             Rx   d 8 00 00 00 00 00 00 00 00  Length = 240000 BitCount = 124 ID = 1803
   0.223424 1  17C             Rx   d 8 00 00 03 1F 00 00 00 2F  Length = 240000 BitCount = 124 ID = 380
   0.223443 2  707             Rx   d 8 00 00 00 00 00 00 00 00  Length = 244000 BitCount = 126 ID = 1799
   0.223631 1  89              Rx   d 6 00 00 00 00 00 25  Length = 199040 BitCount = 104 ID = 137
   0.223693 2  70C             Rx   d 8 00 00 00 00 00 00 00 00  Length = 242000 BitCount = 125 ID = 1804
   0.223925 2  743             Rx   d 8 A5 50 0A FA A0 0F 08 02  Length = 224000 BitCount = 116 ID = 1859
   0.224164 2  5E              Rx   d 8 80 00 04 00 FE F5 C5 E1  Length = 231036 BitCount = 120 ID = 94
   0.224404 2  94              Rx   d 8 80 00 08 02 00 08 0C 41  Length = 231036 BitCount = 120 ID = 148
   0.224654 2  702             Rx   d 8 00 00 00 00 00 00 00 00  Length = 241032 BitCount = 125 ID = 1794
   0.226409 1  191             Rx   d 8 04 00 00 00 00 00 00 27  Length = 236000 BitCount = 122 ID = 401
   0.226424 2  6FB             Rx   d 8 F5 05 00 00 00 00 00 00  Length = 236000 BitCount = 122 ID = 1787
   0.226657 1  130             Rx   d 8 00 00 00 00 00 00 01 21  Length = 240000 BitCount = 124 ID = 304
   0.226676 2  6FC             Rx   d 8 00 00 00 00 00 00 00 00  Length = 244000 BitCount = 126 ID = 1788
   0.226928 2  6FF             Rx   d 8 00 00 00 00 00 00 00 00  Length = 244000 BitCount = 126 ID = 1791
   0.227176 2  705             Rx   d 8 00 00 00 00 00 00 B0 29  Length = 240000 BitCount = 124 ID = 1797
   0.227452 2  701             Rx   d 8 B7 02 00 00 00 80 00 30  Length = 234000 BitCount = 121 ID = 1793
   0.227702 2  708             Rx   d 8 00 00 00 00 00 00 00 00  Length = 242000 BitCount = 125 ID = 1800
   0.227944 2  741             Rx   d 8 38 32 0F 0F 1E 08 08 10  Length = 234000 BitCount = 121 ID = 1857
   0.228434 2  704             Rx   d 8 00 00 00 00 00 00 00 00  Length = 246000 BitCount = 127 ID = 1796
   0.228682 2  721             Rx   d 8 00 00 00 00 00 00 00 00  Length = 240000 BitCount = 124 ID = 1825
   0.229417 2  6FD             Rx   d 8 00 00 00 00 00 00 00 00  Length = 241032 BitCount = 125 ID = 1789
   0.229667 2  722             Rx   d 8 00 00 00 00 00 00 00 00  Length = 241032 BitCount = 125 ID = 1826
   0.229873 2  156             Rx   d 6 00 00 00 00 03 27  Length = 197040 BitCount = 103 ID = 342
   0.230410 1  140             Rx   d 8 80 E5 A1 00 00 00 00 2B  Length = 232000 BitCount = 120 ID = 320
   0.230419 2  706             Rx   d 8 06 00 57 19 56 00 00 00  Length = 232000 BitCount = 120 ID = 1798
   0.230669 2  709             Rx   d 8 00 00 00 00 00 00 00 00  Length = 242000 BitCount = 125 ID = 1801
   0.230915 2  742             Rx   d 8 00 00 00 00 00 00 00 10  Length = 238000 BitCount = 123 ID = 1858
   0.231123 2  156             Rx   d 6 00 00 00 00 07 05  Length = 200000 BitCount = 104 ID = 342
   0.231417 2  703             Rx   d 8 00 00 00 00 00 00 00 00  Length = 242000 BitCount = 125 ID = 1795
   0.231669 2  70A             Rx   d 8 00 00 00 00 00 00 00 00  Length = 244000 BitCount = 126 ID = 1802
   0.232412 1  83              Rx   d 8 00 00 00 00 00 00 00 3A  Length = 242000 BitCount = 125 ID = 131
   0.232419 2  6FE             Rx   d 8 02 00 04 00 00 00 00 00  Length = 238000 BitCount = 123 ID = 1790
   0.232667 2  70B             Rx   d 8 00 00 00 00 00 00 00 00  Length = 240000 BitCount = 124 ID = 1803
   0.233430 1  17C             Rx   d 8 00 00 03 1F 00 00 00 3E  Length = 242000 BitCount = 125 ID = 380
   0.233447 2  707             Rx   d 8 00 00 00 00 00 00 00 00  Length = 244000 BitCount = 126 ID = 1799
   0.233640 1  89              Rx   d 6 00 00 00 00 00 34  Length = 202000 BitCount = 105 ID = 137
   0.233697 2  70C             Rx   d 8 00 00 00 00 00 00 00 00  Length = 242000 BitCount = 125 ID = 1804
   0.233933 2  743             Rx   d 8 6E E0 06 32 32 00 00 10  Length = 228000 BitCount = 118 ID = 1859
   0.234173 2  5E              Rx   d 8 80 00 04 00 FE F5 C5 E1  Length = 232000 BitCount = 120 ID = 94
   0.234415 2  94              Rx   d 8 80 00 08 02 00 08 0C 50  Length = 234000 BitCount = 121 ID = 148
   0.234664 2  702             Rx   d 8 00 00 00 00 00 00 00 00  Length = 241032 BitCount = 125 ID = 1794
   0.236409 1  191             Rx   d 8 04 00 00 00 00 00 00 36  Length = 236000 BitCount = 122 ID = 401
   0.236426 2  6FB             Rx   d 8 F5 05 00 00 00 00 00 00  Length = 236000 BitCount = 122 ID = 1787
   0.236657 1  130             Rx   d 8 00 00 00 00 00 00 01 30  Length = 240000 BitCount = 124 ID = 304
   0.236678 2  6FC             Rx   d 8 00 00 00 00 00 00 00 00  Length = 244000 BitCount = 126 ID = 1788
   0.236930 2  6FF             Rx   d 8 00 00 00 00 00 00 00 00  Length = 244000 BitCount = 126 ID = 1791
   0.237178 2  705             Rx   d 8 00 00 00 00 00 00 B0 29  Length = 240000 BitCount = 124 ID = 1797
   0.237420 2  701             Rx   d 8 B8 02 00 00 00 80 00 30  Length = 234000 BitCount = 121 ID = 1793
   0.237670 2  708             Rx   d 8 00 00 00 00 00 00 00 00  Length = 242000 BitCount = 125 ID = 1800
   0.237918 2  741             Rx   d 8 08 00 00 00 00 00 00 20  Length = 240000 BitCount = 124 ID = 1857
   0.238454 2  704             Rx   d 8 00 00 00 00 00 00 00 00  Length = 246000 BitCount = 127 ID = 1796
   0.238702 2  721             Rx   d 8 00 00 00 00 00 00 00 00  Length = 240000 BitCount = 124 ID = 1825
   0.239428 2  6FD             Rx   d 8 00 00 00 00 00 00 00 00  Length = 242000 BitCount = 125 ID = 1789
   0.239678 2  722             Rx   d 8 00 00 00 00 00 00 00 00  Length = 242000 BitCount = 125 ID = 1826
   0.239883 2  156             Rx   d 6 00 00 00 00 03 36  Length = 197040 BitCount = 103 ID = 342
   0.240410 1  140             Rx   d 8 80 E5 A1 00 00 00 00 3A  Length = 230000 BitCount = 119 ID = 320
   0.240421 2  706             Rx   d 8 06 00 57 19 56 00 00 00  Length = 232000 BitCount = 120 ID = 1798
   0.240671 2  709             Rx   d 8 00 00 00 00 00 00 00 00  Length = 242000 BitCount = 125 ID = 1801
   0.240907 2  742             Rx   d 8 78 80 07 90 01 05 05 05  Length = 228000 BitCount = 118 ID = 1858
   0.241115 2  156             Rx   d 6 00 00 00 00 07 14  Length = 200000 BitCount = 104 ID = 342
   0.241423 2  703             Rx   d 8 00 00 00 00 00 00 00 00  Length = 242000 BitCount = 125 ID = 1795
   0.241675 2  70A             Rx   d 8 00 00 00 00 00 00 00 00  Length = 244000 BitCount = 126 ID = 1802
   0.242404 1  324             Rx   d 8 28 28 00 00 00 00 00 38  Length = 238000 BitCount = 123 ID = 804
   0.242419 2  6FE             Rx   d 8 02 00 04 00 00 00 00 00  Length = 238000 BitCount = 123 ID = 1790
   0.242652 1  83              Rx   d 8 00 00 00 00 00 00 00 0D  Length = 240000 BitCount = 124 ID = 131
   0.242667 2  70B             Rx   d 8 00 00 00 00 00 00 00 00  Length = 240000 BitCount = 124 ID = 1803
   0.243428 1  17C             Rx   d 8 00 00 03 1F 00 00 00 01  Length = 244000 BitCount = 126 ID = 380
   0.243443 2  707             Rx   d 8 00 00 00 00 00 00 00 00  Length = 244000 BitCount = 126 ID = 1799
   0.243638 1  89              Rx   d 6 00 00 00 00 00 07  Length = 202000 BitCount = 105 ID = 137
   0.243693 2  70C             Rx   d 8 00 00 00 00 00 00 00 00  Length = 242000 BitCount = 125 ID = 1804
   0.243925 2  743             Rx   d 8 A5 50 0A FA A0 0F 08 02  Length = 224000 BitCount = 116 ID = 1859
   0.244165 2  5E              Rx   d 8 80 00 04 00 FE F5 C5 E1  Length = 232000 BitCount = 120 ID = 94
   0.244405 2  94              Rx   d 8 80 00 08 02 00 08 0C 6F  Length = 232000 BitCount = 120 ID = 148
   0.244655 2  702             Rx   d 8 00 00 00 00 00 00 00 00  Length = 242000 BitCount = 125 ID = 1794
   0.246405 1  191             Rx   d 8 04 00 00 00 00 00 00 09  Length = 236000 BitCount = 122 ID = 401
   0.246420 2  6FB             Rx   d 8 F5 05 00 00 00 00 00 00  Length = 236000 BitCount = 122 ID = 1787
   0.246653 1  130             Rx   d 8 00 00 00 00 00 00 01 03  Length = 240000 BitCount = 124 ID = 304
   0.246672 2  6FC             Rx   d 8 00 00 00 00 00 00 00 00  Length = 244000 BitCount = 126 ID = 1788
   0.246924 2  6FF             Rx   d 8 00 00 00 00 00 00 00 00  Length = 244000 BitCount = 126 ID = 1791
   0.247172 2  705             Rx   d 8 00 00 00 00 00 00 B0 29  Length = 240000 BitCount = 124 ID = 1797
   0.247414 2  701             Rx   d 8 B7 02 00 00 00 80 00 30  Length = 234000 BitCount = 121 ID = 1793
   0.247664 2  708             Rx   d 8 00 00 00 00 00 00 00 00  Length = 242000 BitCount = 125 ID = 1800
   0.247906 2  741             Rx   d 8 21 21 0D 00 00 00 38 00  Length = 234000 BitCount = 121 ID = 1857
   0.248443 1  326             Rx   d 8 00 00 00 00 00 00 40 36  Length = 238000 BitCount = 123 ID = 806
   0.248460 2  704             Rx   d 8 00 00 00 00 00 00 00 00  Length = 246000 BitCount = 127 ID = 1796
   0.248708 2  721             Rx   d 8 00 00 00 00 00 00 00 00  Length = 240000 BitCount = 124 ID = 1825
   0.249433 1  374             Rx   d 8 28 00 00 00 00 00 00 3D  Length = 238000 BitCount = 123 ID = 884
   0.249448 2  6FD             Rx   d 8 00 00 00 00 00 00 00 00  Length = 242000 BitCount = 125 ID = 1789
   0.249698 2  722             Rx   d 8 00 00 00 00 00 00 00 00  Length = 242000 BitCount = 125 ID = 1826
   0.249904 2  156             Rx   d 6 00 00 00 00 03 09  Length = 198000 BitCount = 103 ID = 342
   0.250408 1  140             Rx   d 8 80 E5 A1 00 00 00 00 0D  Length = 232000 BitCount = 120 ID = 320
   0.250419 2  706             Rx   d 8 06 00 57 19 56 00 00 00  Length = 231036 BitCount = 120 ID = 1798
   0.250669 2  709             Rx   d 8 00 00 00 00 00 00 00 00  Length = 241032 BitCount = 125 ID = 1801
   0.250915 2  742             Rx   d 8 00 00 00 00 00 00 00 10  Length = 238000 BitCount = 123 ID = 1858
   0.251123 2  156             Rx   d 6 00 00 00 00 07 23  Length = 200000 BitCount = 104 ID = 342
   0.251417 2  703             Rx   d 8 00 00 00 00 00 00 00 00  Length = 242000 BitCount = 125 ID = 1795
   0.251669 2  70A             Rx   d 8 00 00 00 00 00 00 00 00  Length = 244000 BitCount = 126 ID = 1802
   0.252102 1  12E             Rx   d 8 00 00 00 00 00 00 00 07  Length = 240000 BitCount = 124 ID = 302
   0.252123 2  1B0             Rx   d 7 00 00 00 CA 00 00 42  Length = 214000 BitCount = 111 ID = 432
   0.252343 1  1A4             Rx   d 8 00 66 00 F0 10 00 00 0D  Length = 232000 BitCount = 120 ID = 420
   0.252372 2  1D0             Rx   d 8 00 00 00 00 00 00 00 0A  Length = 240000 BitCount = 124 ID = 464
   0.252591 1  83              Rx   d 8 00 00 00 00 00 00 00 1C  Length = 240000 BitCount = 124 ID = 131
   0.252620 2  1EA             Rx   d 8 00 00 00 00 00 00 00 0F  Length = 240000 BitCount = 124 ID = 490
   0.252768 2  3D9             Rx   d 3 00 8D 0A  Length = 140000 BitCount = 74 ID = 985
   0.252837 1  1AC             Rx   d 8 7F FF 00 00 04 00 00 09  Length = 238000 BitCount = 123 ID = 428
   0.253014 2  6FE             Rx   d 8 02 00 05 00 00 00 00 00  Length = 238000 BitCount = 123 ID = 1790
   0.253059 1  1B0             Rx   d 7 00 00 00 CA 00 00 42  Length = 214000 BitCount = 111 ID = 432
   0.253244 1  1B9             Rx   d 5 02 02 02 02 0B  Length = 176000 BitCount = 92 ID = 441
   0.253262 2  70B             Rx   d 8 00 00 00 00 00 00 00 00  Length = 240000 BitCount = 124 ID = 1803
   0.253494 1  17C             Rx   d 8 00 00 03 1F 00 00 00 10  Length = 242000 BitCount = 125 ID = 380
   0.253508 2  707             Rx   d 8 41 10 00 01 00 00 00 00  Length = 238000 BitCount = 123 ID = 1799
   0.253700 1  89              Rx   d 6 00 00 00 00 00 16  Length = 198000 BitCount = 103 ID = 137
   0.253758 2  70C             Rx   d 8 00 00 00 00 00 00 00 00  Length = 242000 BitCount = 125 ID = 1804
   0.253948 1  1D0             Rx   d 8 00 00 00 00 00 00 00 0A  Length = 240000 BitCount = 124 ID = 464
   0.253994 2  743             Rx   d 8 6E E0 06 32 32 00 00 10  Length = 228000 BitCount = 118 ID = 1859
   0.254192 1  20E             Rx   d 8 02 02 02 02 FF 00 00 02  Length = 236000 BitCount = 122 ID = 526
   0.254234 2  5E              Rx   d 8 80 00 04 00 FE F5 C5 E1  Length = 232000 BitCount = 120 ID = 94
   0.254433 1  255             Rx   d 8 00 00 00 00 55 55 00 56  Length = 232000 BitCount = 120 ID = 597
   0.254476 2  94              Rx   d 8 80 00 08 02 00 08 0C 7E  Length = 234000 BitCount = 121 ID = 148
   0.254679 1  2FF             Rx   d 8 FF FF FF FF FF 00 00 4E  Length = 238000 BitCount = 123 ID = 767
   0.254726 2  702             Rx   d 8 00 00 00 00 00 00 00 00  Length = 242000 BitCount = 125 ID = 1794
   0.254925 1  31B             Rx   d 8 00 00 00 00 00 04 00 05  Length = 238000 BitCount = 123 ID = 795
   0.255112 1  653             Rx   d 5 00 00 00 04 06  Length = 178000 BitCount = 93 ID = 1619
   0.255358 1  66E             Rx   d 8 86 00 00 00 07 00 00 09  Length = 238000 BitCount = 123 ID = 1646
   0.255644 1  1A45AA47x       Rx   d 8 00 00 01 00 00 00 00 0E  Length = 278000 BitCount = 143 ID = 440773191x
   0.256418 1  191             Rx   d 8 04 00 00 00 00 00 00 18  Length = 236000 BitCount = 122 ID = 401
   0.256433 2  6FB             Rx   d 8 F5 05 00 00 00 00 00 00  Length = 235036 BitCount = 122 ID = 1787
   0.256664 1  130             Rx   d 8 00 00 00 00 00 00 01 12  Length = 238000 BitCount = 123 ID = 304
   0.256685 2  6FC             Rx   d 8 00 00 00 00 00 00 00 00  Length = 243032 BitCount = 126 ID = 1788
   0.256937 2  6FF             Rx   d 8 00 00 00 00 00 00 00 00  Length = 244000 BitCount = 126 ID = 1791
   0.257185 2  705             Rx   d 8 00 00 00 00 00 00 B0 29  Length = 240000 BitCount = 124 ID = 1797
   0.257427 2  701             Rx   d 8 B8 02 00 00 00 80 00 30  Length = 234000 BitCount = 121 ID = 1793
   0.257677 2  708             Rx   d 8 00 00 00 00 00 00 00 00  Length = 242000 BitCount = 125 ID = 1800
   0.257919 2  741             Rx   d 8 38 32 0F 0F 1E 08 08 10  Length = 234000 BitCount = 121 ID = 1857
   0.258421 2  704             Rx   d 8 00 00 00 00 00 00 00 00  Length = 246000 BitCount = 127 ID = 1796
   0.258669 2  721             Rx   d 8 00 00 00 00 00 00 00 00  Length = 240000 BitCount = 124 ID = 1825
   0.259443 2  6FD             Rx   d 8 00 00 00 00 00 00 00 00  Length = 242000 BitCount = 125 ID = 1789
   0.259693 2  722             Rx   d 8 00 00 00 00 00 00 00 00  Length = 242000 BitCount = 125 ID = 1826
   0.259901 2  156             Rx   d 6 00 00 00 00 03 18  Length = 200000 BitCount = 104 ID = 342
   0.260419 1  140             Rx   d 8 80 E5 A1 00 00 00 00 1C  Length = 231036 BitCount = 120 ID = 320
   0.260429 2  706             Rx   d 8 06 00 57 1A 56 00 00 00  Length = 232000 BitCount = 120 ID = 1798
   0.260679 2  709             Rx   d 8 00 00 00 00 00 00 00 00  Length = 242000 BitCount = 125 ID = 1801
   0.260915 2  742             Rx   d 8 78 80 07 90 01 05 05 05  Length = 228000 BitCount = 118 ID = 1858
   0.261121 2  156             Rx   d 6 00 00 00 00 07 32  Length = 198000 BitCount = 103 ID = 342
   0.261422 2  703             Rx   d 8 00 00 00 00 00 00 00 00  Length = 241032 BitCount = 125 ID = 1795
   0.261674 2  70A             Rx   d 8 00 00 00 00 00 00 00 00  Length = 243032 BitCount = 126 ID = 1802
   0.262495 1  83              Rx   d 8 00 00 00 00 00 00 00 2B  Length = 242000 BitCount = 125 ID = 131
   0.262502 2  6FE             Rx   d 8 02 00 05 00 00 00 00 00  Length = 238000 BitCount = 123 ID = 1790
   0.262750 2  70B             Rx   d 8 00 00 00 00 00 00 00 00  Length = 240000 BitCount = 124 ID = 1803
   0.263451 1  17C             Rx   d 8 00 00 03 1F 00 00 00 2F  Length = 240000 BitCount = 124 ID = 380
   0.263470 2  707             Rx   d 8 00 00 00 00 00 00 00 00  Length = 244000 BitCount = 126 ID = 1799
   0.263659 1  89              Rx   d 6 00 00 00 00 00 25  Length = 200000 BitCount = 104 ID = 137
   0.263720 2  70C             Rx   d 8 00 00 00 00 00 00 00 00  Length = 242000 BitCount = 125 ID = 1804
   0.263952 2  743             Rx   d 8 A5 50 0A FA A0 0F 08 02  Length = 224000 BitCount = 116 ID = 1859
   0.264192 2  5E              Rx   d 8 80 00 04 00 FE F5 C5 E1  Length = 232000 BitCount = 120 ID = 94
   0.264432 2  94              Rx   d 8 80 00 08 02 00 08 0C 41  Length = 232000 BitCount = 120 ID = 148
   0.264682 2  702             Rx   d 8 00 00 00 00 00 00 00 00  Length = 242000 BitCount = 125 ID = 1794
   0.266414 1  191             Rx   d 8 04 00 00 00 00 00 00 27  Length = 236000 BitCount = 122 ID = 401
   0.266429 2  6FB             Rx   d 8 F5 05 00 00 00 00 00 00  Length = 235036 BitCount = 122 ID = 1787
   0.266662 1  130             Rx   d 8 00 00 00 00 00 00 01 21  Length = 240000 BitCount = 124 ID = 304
   0.266681 2  6FC             Rx   d 8 00 00 00 00 00 00 00 00  Length = 243032 BitCount = 126 ID = 1788
   0.266933 2  6FF             Rx   d 8 00 00 00 00 00 00 00 00  Length = 243032 BitCount = 126 ID = 1791
   0.267181 2  705             Rx   d 8 00 00 00 00 00 00 B0 29  Length = 240000 BitCount = 124 ID = 1797
   0.267423 2  701             Rx   d 8 B7 02 00 00 00 80 00 30  Length = 234000 BitCount = 121 ID = 1793
   0.267673 2  708             Rx   d 8 00 00 00 00 00 00 00 00  Length = 242000 BitCount = 125 ID = 1800
   0.267921 2  741             Rx   d 8 08 00 00 00 00 00 00 20  Length = 240000 BitCount = 124 ID = 1857
   0.268415 2  704             Rx   d 8 00 00 00 00 00 00 00 00  Length = 246000 BitCount = 127 ID = 1796
   0.268663 2  721             Rx   d 8 00 00 00 00 00 00 00 00  Length = 240000 BitCount = 124 ID = 1825
   0.269405 2  6FD             Rx   d 8 00 00 00 00 00 00 00 00  Length = 242000 BitCount = 125 ID = 1789
   0.269655 2  722             Rx   d 8 00 00 00 00 00 00 00 00  Length = 242000 BitCount = 125 ID = 1826
   0.269861 2  156             Rx   d 6 00 00 00 00 03 27  Length = 198000 BitCount = 103 ID = 342
   0.270450 1  140             Rx   d 8 80 E5 A1 00 00 00 00 2B  Length = 232000 BitCount = 120 ID = 320
   0.270461 2  706             Rx   d 8 06 00 57 19 56 00 00 00  Length = 232000 BitCount = 120 ID = 1798
   0.270711 2  709             Rx   d 8 00 00 00 00 00 00 00 00  Length = 242000 BitCount = 125 ID = 1801
   0.270957 2  742             Rx   d 8 00 00 00 00 00 00 00 10  Length = 238000 BitCount = 123 ID = 1858
   0.271165 2  156             Rx   d 6 00 00 00 00 07 05  Length = 200000 BitCount = 104 ID = 342
   0.271441 2  703             Rx   d 8 00 00 00 00 00 00 00 00  Length = 242000 BitCount = 125 ID = 1795
   0.271692 2  70A             Rx   d 8 00 00 00 00 00 00 00 00  Length = 243032 BitCount = 126 ID = 1802
