date Wed Apr 30 05:52:45.948 pm 2025
base hex  timestamps absolute
internal events logged
// version 16.2.0
// Measurement UUID: a8a75e35-62b3-4023-8053-05b28996ad70
Begin TriggerBlock Wed Apr 30 05:52:45.948 pm 2025
   0.000000 Start of measurement
   0.002689 2  6FD             Rx   d 8 00 00 00 00 00 00 00 00  Length = 242000 BitCount = 125 ID = 1789
   0.002955 2  722             Rx   d 8 00 00 00 00 00 00 00 00  Length = 242000 BitCount = 125 ID = 1826
   0.003195 2  706             Rx   d 8 06 00 57 19 56 00 00 00  Length = 232000 BitCount = 120 ID = 1798
   0.003445 2  709             Rx   d 8 00 00 00 00 00 00 00 00  Length = 242000 BitCount = 125 ID = 1801
   0.003681 2  742             Rx   d 8 78 80 07 90 01 05 05 05  Length = 228000 BitCount = 118 ID = 1858
   0.003930 2  703             Rx   d 8 00 00 00 00 00 00 00 00  Length = 241032 BitCount = 125 ID = 1795
   0.004182 2  70A             Rx   d 8 00 00 00 00 00 00 00 00  Length = 243032 BitCount = 126 ID = 1802
   0.004432 2  6FE             Rx   d 8 01 00 05 00 00 00 00 00  Length = 242000 BitCount = 125 ID = 1790
   0.004680 2  70B             Rx   d 8 00 00 00 00 00 00 00 00  Length = 240000 BitCount = 124 ID = 1803
   0.004932 2  707             Rx   d 8 00 00 00 00 00 00 00 00  Length = 244000 BitCount = 126 ID = 1799
   0.005182 2  70C             Rx   d 8 00 00 00 00 00 00 00 00  Length = 242000 BitCount = 125 ID = 1804
   0.005414 2  743             Rx   d 8 A5 50 0A FA A0 0F 08 02  Length = 224000 BitCount = 116 ID = 1859
   0.005654 2  5E              Rx   d 8 80 00 04 00 FE F5 C5 E1  Length = 232000 BitCount = 120 ID = 94
   0.005896 2  94              Rx   d 8 80 00 08 02 00 08 0C 50  Length = 234000 BitCount = 121 ID = 148
   0.006146 2  702             Rx   d 8 00 00 00 00 00 00 00 00  Length = 242000 BitCount = 125 ID = 1794
   0.006392 2  6FB             Rx   d 8 75 05 00 00 00 00 00 00  Length = 238000 BitCount = 123 ID = 1787
   0.006644 2  6FC             Rx   d 8 00 00 00 00 00 00 00 00  Length = 244000 BitCount = 126 ID = 1788
   0.006896 2  6FF             Rx   d 8 00 00 00 00 00 00 00 00  Length = 244000 BitCount = 126 ID = 1791
   0.007144 2  705             Rx   d 8 00 00 00 00 00 00 B0 29  Length = 240000 BitCount = 124 ID = 1797
   0.007388 2  701             Rx   d 8 B7 02 00 00 00 80 00 00  Length = 236000 BitCount = 122 ID = 1793
   0.007638 2  708             Rx   d 8 00 00 00 00 00 00 00 00  Length = 242000 BitCount = 125 ID = 1800
   0.007880 2  741             Rx   d 8 21 21 0D 00 00 00 38 00  Length = 234000 BitCount = 121 ID = 1857
   0.008134 2  704             Rx   d 8 00 00 00 00 00 00 00 00  Length = 246000 BitCount = 127 ID = 1796
   0.008382 2  721             Rx   d 8 00 00 00 00 00 00 00 00  Length = 240000 BitCount = 124 ID = 1825
   0.008632 2  6FD             Rx   d 8 00 00 00 00 00 00 00 00  Length = 242000 BitCount = 125 ID = 1789
   0.008881 2  722             Rx   d 8 00 00 00 00 00 00 00 00  Length = 241032 BitCount = 125 ID = 1826
   0.009121 2  706             Rx   d 8 06 00 57 1B 56 00 00 00  Length = 231036 BitCount = 120 ID = 1798
   0.009371 2  709             Rx   d 8 00 00 00 00 00 00 00 00  Length = 241032 BitCount = 125 ID = 1801
   0.009617 2  742             Rx   d 8 00 00 00 00 00 00 00 10  Length = 238000 BitCount = 123 ID = 1858
   0.009867 2  703             Rx   d 8 00 00 00 00 00 00 00 00  Length = 242000 BitCount = 125 ID = 1795
   0.010119 2  70A             Rx   d 8 00 00 00 00 00 00 00 00  Length = 244000 BitCount = 126 ID = 1802
   0.010369 2  6FE             Rx   d 8 01 00 05 00 00 00 00 00  Length = 242000 BitCount = 125 ID = 1790
   0.010617 2  70B             Rx   d 8 00 00 00 00 00 00 00 00  Length = 240000 BitCount = 124 ID = 1803
   0.010869 2  707             Rx   d 8 00 00 00 00 00 00 00 00  Length = 244000 BitCount = 126 ID = 1799
   0.011119 2  70C             Rx   d 8 00 00 00 00 00 00 00 00  Length = 242000 BitCount = 125 ID = 1804
   0.011355 2  743             Rx   d 8 6E E0 06 32 32 00 00 10  Length = 228000 BitCount = 118 ID = 1859
   0.011595 2  5E              Rx   d 8 80 00 04 00 FE F5 C5 E1  Length = 232000 BitCount = 120 ID = 94
   0.011809 CAN 1 Status:chip status error active
   0.011809 CAN 2 Status:chip status error active
   0.011835 2  94              Rx   d 8 80 00 08 02 00 08 0C 6F  Length = 232000 BitCount = 120 ID = 148
   0.012085 2  702             Rx   d 8 00 00 00 00 00 00 00 00  Length = 242000 BitCount = 125 ID = 1794
   0.012331 2  6FB             Rx   d 8 75 05 00 00 00 00 00 00  Length = 238000 BitCount = 123 ID = 1787
   0.012583 2  6FC             Rx   d 8 00 00 00 00 00 00 00 00  Length = 244000 BitCount = 126 ID = 1788
   0.012835 2  6FF             Rx   d 8 00 00 00 00 00 00 00 00  Length = 244000 BitCount = 126 ID = 1791
   0.013083 2  705             Rx   d 8 00 00 00 00 00 00 B0 29  Length = 240000 BitCount = 124 ID = 1797
   0.013327 2  701             Rx   d 8 B7 02 00 00 00 80 00 00  Length = 236000 BitCount = 122 ID = 1793
   0.013577 2  708             Rx   d 8 00 00 00 00 00 00 00 00  Length = 242000 BitCount = 125 ID = 1800
   0.013819 2  741             Rx   d 8 38 32 0F 0F 1E 08 08 10  Length = 234000 BitCount = 121 ID = 1857
   0.014072 2  704             Rx   d 8 00 00 00 00 00 00 00 00  Length = 245032 BitCount = 127 ID = 1796
   0.014320 2  721             Rx   d 8 00 00 00 00 00 00 00 00  Length = 239036 BitCount = 124 ID = 1825
   0.014570 2  6FD             Rx   d 8 00 00 00 00 00 00 00 00  Length = 241032 BitCount = 125 ID = 1789
   0.014820 2  722             Rx   d 8 00 00 00 00 00 00 00 00  Length = 242000 BitCount = 125 ID = 1826
   0.015062 2  706             Rx   d 8 06 00 57 17 56 00 00 00  Length = 234000 BitCount = 121 ID = 1798
   0.015312 2  709             Rx   d 8 00 00 00 00 00 00 00 00  Length = 242000 BitCount = 125 ID = 1801
   0.015548 2  742             Rx   d 8 78 80 07 90 01 05 05 05  Length = 228000 BitCount = 118 ID = 1858
   0.015798 2  703             Rx   d 8 00 00 00 00 00 00 00 00  Length = 242000 BitCount = 125 ID = 1795
   0.016050 2  70A             Rx   d 8 00 00 00 00 00 00 00 00  Length = 244000 BitCount = 126 ID = 1802
   0.016300 2  6FE             Rx   d 8 01 00 05 00 00 00 00 00  Length = 242000 BitCount = 125 ID = 1790
   0.016548 2  70B             Rx   d 8 00 00 00 00 00 00 00 00  Length = 240000 BitCount = 124 ID = 1803
   0.016800 2  707             Rx   d 8 00 00 00 00 00 00 00 00  Length = 244000 BitCount = 126 ID = 1799
   0.017050 2  70C             Rx   d 8 00 00 00 00 00 00 00 00  Length = 242000 BitCount = 125 ID = 1804
   0.017282 2  743             Rx   d 8 A5 50 0A FA A0 0F 08 02  Length = 224000 BitCount = 116 ID = 1859
   0.017522 2  5E              Rx   d 8 80 00 04 00 FE F5 C5 E1  Length = 232000 BitCount = 120 ID = 94
   0.017764 2  94              Rx   d 8 80 00 08 02 00 08 0C 7E  Length = 234000 BitCount = 121 ID = 148
   0.018014 2  702             Rx   d 8 00 00 00 00 00 00 00 00  Length = 242000 BitCount = 125 ID = 1794
   0.018260 2  6FB             Rx   d 8 75 05 00 00 00 00 00 00  Length = 238000 BitCount = 123 ID = 1787
   0.018512 2  6FC             Rx   d 8 00 00 00 00 00 00 00 00  Length = 244000 BitCount = 126 ID = 1788
   0.018764 2  6FF             Rx   d 8 00 00 00 00 00 00 00 00  Length = 244000 BitCount = 126 ID = 1791
   0.019012 2  705             Rx   d 8 00 00 00 00 00 00 B0 29  Length = 240000 BitCount = 124 ID = 1797
   0.019255 2  701             Rx   d 8 B7 02 00 00 00 80 00 00  Length = 235036 BitCount = 122 ID = 1793
   0.019505 2  708             Rx   d 8 00 00 00 00 00 00 00 00  Length = 241032 BitCount = 125 ID = 1800
   0.019753 2  741             Rx   d 8 08 00 00 00 00 00 00 20  Length = 239036 BitCount = 124 ID = 1857
   0.020007 2  704             Rx   d 8 00 00 00 00 00 00 00 00  Length = 246000 BitCount = 127 ID = 1796
   0.020255 2  721             Rx   d 8 00 00 00 00 00 00 00 00  Length = 240000 BitCount = 124 ID = 1825
   0.020505 2  6FD             Rx   d 8 00 00 00 00 00 00 00 00  Length = 242000 BitCount = 125 ID = 1789
   0.020755 2  722             Rx   d 8 00 00 00 00 00 00 00 00  Length = 242000 BitCount = 125 ID = 1826
   0.020997 2  706             Rx   d 8 06 00 57 17 56 00 00 00  Length = 234000 BitCount = 121 ID = 1798
   0.021247 2  709             Rx   d 8 00 00 00 00 00 00 00 00  Length = 242000 BitCount = 125 ID = 1801
   0.021493 2  742             Rx   d 8 00 00 00 00 00 00 00 10  Length = 238000 BitCount = 123 ID = 1858
   0.021743 2  703             Rx   d 8 00 00 00 00 00 00 00 00  Length = 242000 BitCount = 125 ID = 1795
   0.021995 2  70A             Rx   d 8 00 00 00 00 00 00 00 00  Length = 244000 BitCount = 126 ID = 1802
   0.022245 2  6FE             Rx   d 8 01 00 05 00 00 00 00 00  Length = 242000 BitCount = 125 ID = 1790
   0.022493 2  70B             Rx   d 8 00 00 00 00 00 00 00 00  Length = 240000 BitCount = 124 ID = 1803
   0.022745 2  707             Rx   d 8 00 00 00 00 00 00 00 00  Length = 244000 BitCount = 126 ID = 1799
   0.022995 2  70C             Rx   d 8 00 00 00 00 00 00 00 00  Length = 242000 BitCount = 125 ID = 1804
   0.023231 2  743             Rx   d 8 6E E0 06 32 32 00 00 10  Length = 228000 BitCount = 118 ID = 1859
   0.023471 2  5E              Rx   d 8 80 00 04 00 FE F5 C5 E1  Length = 232000 BitCount = 120 ID = 94
   0.023711 2  94              Rx   d 8 80 00 08 02 00 08 0C 41  Length = 232000 BitCount = 120 ID = 148
   0.023961 2  702             Rx   d 8 00 00 00 00 00 00 00 00  Length = 242000 BitCount = 125 ID = 1794
   0.024207 2  6FB             Rx   d 8 75 05 00 00 00 00 00 00  Length = 238000 BitCount = 123 ID = 1787
   0.024458 2  6FC             Rx   d 8 00 00 00 00 00 00 00 00  Length = 243032 BitCount = 126 ID = 1788
   0.024710 2  6FF             Rx   d 8 00 00 00 00 00 00 00 00  Length = 243032 BitCount = 126 ID = 1791
   0.024958 2  705             Rx   d 8 00 00 00 00 00 00 B0 29  Length = 239036 BitCount = 124 ID = 1797
   0.025202 2  701             Rx   d 8 B7 02 00 00 00 80 00 00  Length = 236000 BitCount = 122 ID = 1793
   0.025452 2  708             Rx   d 8 00 00 00 00 00 00 00 00  Length = 242000 BitCount = 125 ID = 1800
   0.025694 2  741             Rx   d 8 21 21 0D 00 00 00 38 00  Length = 234000 BitCount = 121 ID = 1857
   0.025948 2  704             Rx   d 8 00 00 00 00 00 00 00 00  Length = 246000 BitCount = 127 ID = 1796
   0.026196 2  721             Rx   d 8 00 00 00 00 00 00 00 00  Length = 240000 BitCount = 124 ID = 1825
   0.026446 2  6FD             Rx   d 8 00 00 00 00 00 00 00 00  Length = 242000 BitCount = 125 ID = 1789
   0.026696 2  722             Rx   d 8 00 00 00 00 00 00 00 00  Length = 242000 BitCount = 125 ID = 1826
   0.026936 2  706             Rx   d 8 06 00 57 18 56 00 00 00  Length = 232000 BitCount = 120 ID = 1798
   0.027186 2  709             Rx   d 8 00 00 00 00 00 00 00 00  Length = 242000 BitCount = 125 ID = 1801
   0.027422 2  742             Rx   d 8 78 80 07 90 01 05 05 05  Length = 228000 BitCount = 118 ID = 1858
   0.027672 2  703             Rx   d 8 00 00 00 00 00 00 00 00  Length = 242000 BitCount = 125 ID = 1795
   0.027924 2  70A             Rx   d 8 00 00 00 00 00 00 00 00  Length = 244000 BitCount = 126 ID = 1802
   0.028174 2  6FE             Rx   d 8 01 00 05 00 00 00 00 00  Length = 242000 BitCount = 125 ID = 1790
   0.028422 2  70B             Rx   d 8 00 00 00 00 00 00 00 00  Length = 240000 BitCount = 124 ID = 1803
   0.028674 2  707             Rx   d 8 00 00 00 00 00 00 00 00  Length = 244000 BitCount = 126 ID = 1799
   0.028924 2  70C             Rx   d 8 00 00 00 00 00 00 00 00  Length = 242000 BitCount = 125 ID = 1804
   0.029156 2  743             Rx   d 8 A5 50 0A FA A0 0F 08 02  Length = 224000 BitCount = 116 ID = 1859
   0.029396 2  5E              Rx   d 8 80 00 04 00 FE F5 C5 E1  Length = 232000 BitCount = 120 ID = 94
   0.029638 2  94              Rx   d 8 80 00 08 02 00 08 0C 50  Length = 234000 BitCount = 121 ID = 148
   0.029887 2  702             Rx   d 8 00 00 00 00 00 00 00 00  Length = 241032 BitCount = 125 ID = 1794
   0.030133 2  6FB             Rx   d 8 75 05 00 00 00 00 00 00  Length = 237036 BitCount = 123 ID = 1787
   0.030385 2  6FC             Rx   d 8 00 00 00 00 00 00 00 00  Length = 244000 BitCount = 126 ID = 1788
   0.030637 2  6FF             Rx   d 8 00 00 00 00 00 00 00 00  Length = 244000 BitCount = 126 ID = 1791
   0.030885 2  705             Rx   d 8 00 00 00 00 00 00 B0 29  Length = 240000 BitCount = 124 ID = 1797
   0.031129 2  701             Rx   d 8 B7 02 00 00 00 80 00 00  Length = 236000 BitCount = 122 ID = 1793
   0.031379 2  708             Rx   d 8 00 00 00 00 00 00 00 00  Length = 242000 BitCount = 125 ID = 1800
   0.031621 2  741             Rx   d 8 38 32 0F 0F 1E 08 08 10  Length = 234000 BitCount = 121 ID = 1857
   0.031875 2  704             Rx   d 8 00 00 00 00 00 00 00 00  Length = 246000 BitCount = 127 ID = 1796
   0.032123 2  721             Rx   d 8 00 00 00 00 00 00 00 00  Length = 240000 BitCount = 124 ID = 1825
   0.032373 2  6FD             Rx   d 8 00 00 00 00 00 00 00 00  Length = 242000 BitCount = 125 ID = 1789
   0.032623 2  722             Rx   d 8 00 00 00 00 00 00 00 00  Length = 242000 BitCount = 125 ID = 1826
   0.032863 2  706             Rx   d 8 04 00 57 16 56 00 00 00  Length = 232000 BitCount = 120 ID = 1798
   0.033113 2  709             Rx   d 8 00 00 00 00 00 00 00 00  Length = 242000 BitCount = 125 ID = 1801
   0.033359 2  742             Rx   d 8 00 00 00 00 00 00 00 10  Length = 238000 BitCount = 123 ID = 1858
   0.033609 2  703             Rx   d 8 00 00 00 00 00 00 00 00  Length = 242000 BitCount = 125 ID = 1795
   0.033861 2  70A             Rx   d 8 00 00 00 00 00 00 00 00  Length = 244000 BitCount = 126 ID = 1802
   0.034109 2  6FE             Rx   d 8 01 00 02 00 00 00 00 00  Length = 240000 BitCount = 124 ID = 1790
   0.034357 2  70B             Rx   d 8 00 00 00 00 00 00 00 00  Length = 240000 BitCount = 124 ID = 1803
   0.034609 2  707             Rx   d 8 00 00 00 00 00 00 00 00  Length = 244000 BitCount = 126 ID = 1799
   0.034858 2  70C             Rx   d 8 00 00 00 00 00 00 00 00  Length = 241032 BitCount = 125 ID = 1804
   0.035094 2  743             Rx   d 8 6E E0 06 32 32 00 00 10  Length = 227036 BitCount = 118 ID = 1859
   0.035344 2  6FD             Rx   d 8 00 00 00 00 00 00 00 00  Length = 241032 BitCount = 125 ID = 1789
   0.035594 2  722             Rx   d 8 00 00 00 00 00 00 00 00  Length = 242000 BitCount = 125 ID = 1826
   0.035834 2  706             Rx   d 8 03 00 57 00 56 00 00 00  Length = 232000 BitCount = 120 ID = 1798
   0.036084 2  709             Rx   d 8 00 00 00 00 00 00 00 00  Length = 242000 BitCount = 125 ID = 1801
   0.036320 2  742             Rx   d 8 78 80 07 90 01 05 05 05  Length = 228000 BitCount = 118 ID = 1858
   0.036570 2  703             Rx   d 8 00 00 00 00 00 00 00 00  Length = 242000 BitCount = 125 ID = 1795
   0.036822 2  70A             Rx   d 8 00 00 00 00 00 00 00 00  Length = 244000 BitCount = 126 ID = 1802
   0.037072 2  6FE             Rx   d 8 02 00 01 00 00 00 00 00  Length = 242000 BitCount = 125 ID = 1790
   0.037320 2  70B             Rx   d 8 00 00 00 00 00 00 00 00  Length = 240000 BitCount = 124 ID = 1803
   0.037572 2  707             Rx   d 8 00 00 00 00 00 00 00 00  Length = 244000 BitCount = 126 ID = 1799
   0.037822 2  70C             Rx   d 8 00 00 00 00 00 00 00 00  Length = 242000 BitCount = 125 ID = 1804
   0.038054 2  743             Rx   d 8 A5 50 0A FA A0 0F 08 02  Length = 224000 BitCount = 116 ID = 1859
   0.038294 2  5E              Rx   d 8 80 00 04 00 FE F5 C5 E1  Length = 232000 BitCount = 120 ID = 94
   0.038536 2  94              Rx   d 8 80 00 08 02 00 08 0C 50  Length = 234000 BitCount = 121 ID = 148
   0.038786 2  702             Rx   d 8 00 00 00 00 00 00 00 00  Length = 242000 BitCount = 125 ID = 1794
   0.039032 2  6FB             Rx   d 8 75 05 00 00 00 00 00 00  Length = 238000 BitCount = 123 ID = 1787
   0.039284 2  6FC             Rx   d 8 00 00 00 00 00 00 00 00  Length = 244000 BitCount = 126 ID = 1788
   0.039536 2  6FF             Rx   d 8 00 00 00 00 00 00 00 00  Length = 244000 BitCount = 126 ID = 1791
   0.039784 2  705             Rx   d 8 00 00 00 00 00 00 B0 29  Length = 240000 BitCount = 124 ID = 1797
   0.040028 2  701             Rx   d 8 B7 02 00 00 00 80 00 00  Length = 236000 BitCount = 122 ID = 1793
   0.040277 2  708             Rx   d 8 00 00 00 00 00 00 00 00  Length = 241032 BitCount = 125 ID = 1800
   0.040519 2  741             Rx   d 8 38 32 0F 0F 1E 08 08 10  Length = 233036 BitCount = 121 ID = 1857
   0.040773 2  704             Rx   d 8 00 00 00 00 00 00 00 00  Length = 245032 BitCount = 127 ID = 1796
   0.041021 2  721             Rx   d 8 00 00 00 00 00 00 00 00  Length = 240000 BitCount = 124 ID = 1825
   0.041271 2  6FD             Rx   d 8 00 00 00 00 00 00 00 00  Length = 242000 BitCount = 125 ID = 1789
   0.041521 2  722             Rx   d 8 00 00 00 00 00 00 00 00  Length = 242000 BitCount = 125 ID = 1826
   0.041761 2  706             Rx   d 8 03 00 57 00 56 00 00 00  Length = 232000 BitCount = 120 ID = 1798
   0.042011 2  709             Rx   d 8 00 00 00 00 00 00 00 00  Length = 242000 BitCount = 125 ID = 1801
   0.042257 2  742             Rx   d 8 00 00 00 00 00 00 00 10  Length = 238000 BitCount = 123 ID = 1858
   0.042507 2  703             Rx   d 8 00 00 00 00 00 00 00 00  Length = 242000 BitCount = 125 ID = 1795
   0.042759 2  70A             Rx   d 8 00 00 00 00 00 00 00 00  Length = 244000 BitCount = 126 ID = 1802
   0.043009 2  6FE             Rx   d 8 02 00 01 00 00 00 00 00  Length = 242000 BitCount = 125 ID = 1790
   0.043257 2  70B             Rx   d 8 00 00 00 00 00 00 00 00  Length = 240000 BitCount = 124 ID = 1803
   0.043509 2  707             Rx   d 8 00 00 00 00 00 00 00 00  Length = 244000 BitCount = 126 ID = 1799
   0.043759 2  70C             Rx   d 8 00 00 00 00 00 00 00 00  Length = 242000 BitCount = 125 ID = 1804
   0.043995 2  743             Rx   d 8 6E E0 06 32 32 00 00 10  Length = 228000 BitCount = 118 ID = 1859
   0.044235 2  5E              Rx   d 8 80 00 04 00 FE F5 C5 E1  Length = 232000 BitCount = 120 ID = 94
   0.044475 2  94              Rx   d 8 80 00 08 02 00 08 0C 6F  Length = 232000 BitCount = 120 ID = 148
   0.044725 2  702             Rx   d 8 00 00 00 00 00 00 00 00  Length = 242000 BitCount = 125 ID = 1794
   0.044971 2  6FB             Rx   d 8 75 05 00 00 00 00 00 00  Length = 238000 BitCount = 123 ID = 1787
   0.045223 2  6FC             Rx   d 8 00 00 00 00 00 00 00 00  Length = 244000 BitCount = 126 ID = 1788
   0.045474 2  6FF             Rx   d 8 00 00 00 00 00 00 00 00  Length = 243032 BitCount = 126 ID = 1791
   0.045722 2  705             Rx   d 8 00 00 00 00 00 00 B0 29  Length = 239036 BitCount = 124 ID = 1797
   0.045966 2  701             Rx   d 8 B7 02 00 00 00 80 00 00  Length = 236000 BitCount = 122 ID = 1793
   0.046216 2  708             Rx   d 8 00 00 00 00 00 00 00 00  Length = 242000 BitCount = 125 ID = 1800
   0.046464 2  741             Rx   d 8 08 00 00 00 00 00 00 20  Length = 240000 BitCount = 124 ID = 1857
   0.046718 2  704             Rx   d 8 00 00 00 00 00 00 00 00  Length = 246000 BitCount = 127 ID = 1796
   0.046966 2  721             Rx   d 8 00 00 00 00 00 00 00 00  Length = 240000 BitCount = 124 ID = 1825
   0.047216 2  6FD             Rx   d 8 00 00 00 00 00 00 00 00  Length = 242000 BitCount = 125 ID = 1789
   0.047466 2  722             Rx   d 8 00 00 00 00 00 00 00 00  Length = 242000 BitCount = 125 ID = 1826
   0.047706 2  706             Rx   d 8 03 00 57 00 56 00 00 00  Length = 232000 BitCount = 120 ID = 1798
   0.047956 2  709             Rx   d 8 00 00 00 00 00 00 00 00  Length = 242000 BitCount = 125 ID = 1801
   0.048192 2  742             Rx   d 8 78 80 07 90 01 05 05 05  Length = 228000 BitCount = 118 ID = 1858
   0.048442 2  703             Rx   d 8 00 00 00 00 00 00 00 00  Length = 242000 BitCount = 125 ID = 1795
   0.048694 2  70A             Rx   d 8 00 00 00 00 00 00 00 00  Length = 244000 BitCount = 126 ID = 1802
   0.048944 2  6FE             Rx   d 8 02 00 01 00 00 00 00 00  Length = 242000 BitCount = 125 ID = 1790
   0.049192 2  70B             Rx   d 8 00 00 00 00 00 00 00 00  Length = 240000 BitCount = 124 ID = 1803
   0.049444 2  707             Rx   d 8 00 00 00 00 00 00 00 00  Length = 244000 BitCount = 126 ID = 1799
   0.049694 2  70C             Rx   d 8 00 00 00 00 00 00 00 00  Length = 242000 BitCount = 125 ID = 1804
   0.049926 2  743             Rx   d 8 A5 50 0A FA A0 0F 08 02  Length = 224000 BitCount = 116 ID = 1859
   0.050166 2  5E              Rx   d 8 80 00 04 00 FE F5 C5 E1  Length = 232000 BitCount = 120 ID = 94
   0.050407 2  94              Rx   d 8 80 00 08 02 00 08 0C 7E  Length = 233036 BitCount = 121 ID = 148
   0.050657 2  702             Rx   d 8 00 00 00 00 00 00 00 00  Length = 241032 BitCount = 125 ID = 1794
   0.050903 2  6FB             Rx   d 8 75 05 00 00 00 00 00 00  Length = 237036 BitCount = 123 ID = 1787
   0.051155 2  6FC             Rx   d 8 00 00 00 00 00 00 00 00  Length = 244000 BitCount = 126 ID = 1788
   0.051407 2  6FF             Rx   d 8 00 00 00 00 00 00 00 00  Length = 244000 BitCount = 126 ID = 1791
   0.051655 2  705             Rx   d 8 00 00 00 00 00 00 B0 29  Length = 240000 BitCount = 124 ID = 1797
   0.051899 2  701             Rx   d 8 B7 02 00 00 00 80 00 00  Length = 236000 BitCount = 122 ID = 1793
   0.052149 2  708             Rx   d 8 00 00 00 00 00 00 00 00  Length = 242000 BitCount = 125 ID = 1800
   0.052391 2  741             Rx   d 8 21 21 0D 00 00 00 38 00  Length = 234000 BitCount = 121 ID = 1857
   0.052645 2  704             Rx   d 8 00 00 00 00 00 00 00 00  Length = 246000 BitCount = 127 ID = 1796
   0.052893 2  721             Rx   d 8 00 00 00 00 00 00 00 00  Length = 240000 BitCount = 124 ID = 1825
   0.053143 2  6FD             Rx   d 8 00 00 00 00 00 00 00 00  Length = 242000 BitCount = 125 ID = 1789
   0.053393 2  722             Rx   d 8 00 00 00 00 00 00 00 00  Length = 242000 BitCount = 125 ID = 1826
   0.053633 2  706             Rx   d 8 03 00 57 00 56 00 00 00  Length = 232000 BitCount = 120 ID = 1798
   0.053883 2  709             Rx   d 8 00 00 00 00 00 00 00 00  Length = 242000 BitCount = 125 ID = 1801
   0.054129 2  742             Rx   d 8 00 00 00 00 00 00 00 10  Length = 238000 BitCount = 123 ID = 1858
   0.054379 2  703             Rx   d 8 00 00 00 00 00 00 00 00  Length = 242000 BitCount = 125 ID = 1795
   0.054631 2  70A             Rx   d 8 00 00 00 00 00 00 00 00  Length = 244000 BitCount = 126 ID = 1802
   0.054881 2  6FE             Rx   d 8 02 00 01 00 00 00 00 00  Length = 242000 BitCount = 125 ID = 1790
   0.055129 2  70B             Rx   d 8 00 00 00 00 00 00 00 00  Length = 240000 BitCount = 124 ID = 1803
   0.055381 2  707             Rx   d 8 00 00 00 00 00 00 00 00  Length = 244000 BitCount = 126 ID = 1799
   0.055630 2  70C             Rx   d 8 00 00 00 00 00 00 00 00  Length = 241032 BitCount = 125 ID = 1804
   0.055866 2  743             Rx   d 8 6E E0 06 32 32 00 00 10  Length = 227036 BitCount = 118 ID = 1859
   0.056106 2  5E              Rx   d 8 80 00 04 00 FE F5 C5 E1  Length = 231036 BitCount = 120 ID = 94
   0.056346 2  94              Rx   d 8 80 00 08 02 00 08 0C 41  Length = 232000 BitCount = 120 ID = 148
   0.056596 2  702             Rx   d 8 00 00 00 00 00 00 00 00  Length = 242000 BitCount = 125 ID = 1794
   0.056842 2  6FB             Rx   d 8 75 05 00 00 00 00 00 00  Length = 238000 BitCount = 123 ID = 1787
   0.057094 2  6FC             Rx   d 8 00 00 00 00 00 00 00 00  Length = 244000 BitCount = 126 ID = 1788
   0.057346 2  6FF             Rx   d 8 00 00 00 00 00 00 00 00  Length = 244000 BitCount = 126 ID = 1791
   0.057594 2  705             Rx   d 8 00 00 00 00 00 00 B0 29  Length = 240000 BitCount = 124 ID = 1797
   0.057838 2  701             Rx   d 8 B7 02 00 00 00 80 00 00  Length = 236000 BitCount = 122 ID = 1793
   0.058088 2  708             Rx   d 8 00 00 00 00 00 00 00 00  Length = 242000 BitCount = 125 ID = 1800
   0.058330 2  741             Rx   d 8 38 32 0F 0F 1E 08 08 10  Length = 234000 BitCount = 121 ID = 1857
   0.058584 2  704             Rx   d 8 00 00 00 00 00 00 00 00  Length = 246000 BitCount = 127 ID = 1796
   0.058832 2  721             Rx   d 8 00 00 00 00 00 00 00 00  Length = 240000 BitCount = 124 ID = 1825
   0.059082 2  6FD             Rx   d 8 00 00 00 00 00 00 00 00  Length = 242000 BitCount = 125 ID = 1789
   0.059332 2  722             Rx   d 8 00 00 00 00 00 00 00 00  Length = 242000 BitCount = 125 ID = 1826
   0.059572 2  706             Rx   d 8 03 00 57 00 56 00 00 00  Length = 232000 BitCount = 120 ID = 1798
   0.059822 2  709             Rx   d 8 00 00 00 00 00 00 00 00  Length = 242000 BitCount = 125 ID = 1801
   0.060058 2  742             Rx   d 8 78 80 07 90 01 05 05 05  Length = 228000 BitCount = 118 ID = 1858
   0.060308 2  703             Rx   d 8 00 00 00 00 00 00 00 00  Length = 242000 BitCount = 125 ID = 1795
   0.060560 2  70A             Rx   d 8 00 00 00 00 00 00 00 00  Length = 244000 BitCount = 126 ID = 1802
   0.060809 2  6FE             Rx   d 8 02 00 01 00 00 00 00 00  Length = 241032 BitCount = 125 ID = 1790
   0.061057 2  70B             Rx   d 8 00 00 00 00 00 00 00 00  Length = 239036 BitCount = 124 ID = 1803
   0.061309 2  707             Rx   d 8 00 00 00 00 00 00 00 00  Length = 243032 BitCount = 126 ID = 1799
   0.061559 2  70C             Rx   d 8 00 00 00 00 00 00 00 00  Length = 242000 BitCount = 125 ID = 1804
   0.061791 2  743             Rx   d 8 A5 50 0A FA A0 0F 08 02  Length = 224000 BitCount = 116 ID = 1859
   0.062031 2  5E              Rx   d 8 80 00 04 00 FE F5 C5 E1  Length = 232000 BitCount = 120 ID = 94
   0.062273 2  94              Rx   d 8 80 00 08 02 00 08 0C 50  Length = 234000 BitCount = 121 ID = 148
   0.062523 2  702             Rx   d 8 00 00 00 00 00 00 00 00  Length = 242000 BitCount = 125 ID = 1794
   0.062769 2  6FB             Rx   d 8 75 05 00 00 00 00 00 00  Length = 238000 BitCount = 123 ID = 1787
   0.063021 2  6FC             Rx   d 8 00 00 00 00 00 00 00 00  Length = 244000 BitCount = 126 ID = 1788
   0.063273 2  6FF             Rx   d 8 00 00 00 00 00 00 00 00  Length = 244000 BitCount = 126 ID = 1791
   0.063521 2  705             Rx   d 8 00 00 00 00 00 00 B0 29  Length = 240000 BitCount = 124 ID = 1797
   0.063765 2  701             Rx   d 8 B7 02 00 00 00 80 00 00  Length = 236000 BitCount = 122 ID = 1793
   0.064015 2  708             Rx   d 8 00 00 00 00 00 00 00 00  Length = 242000 BitCount = 125 ID = 1800
   0.064263 2  741             Rx   d 8 08 00 00 00 00 00 00 20  Length = 240000 BitCount = 124 ID = 1857
   0.064517 2  704             Rx   d 8 00 00 00 00 00 00 00 00  Length = 246000 BitCount = 127 ID = 1796
   0.064765 2  721             Rx   d 8 00 00 00 00 00 00 00 00  Length = 240000 BitCount = 124 ID = 1825
   0.065015 2  6FD             Rx   d 8 00 00 00 00 00 00 00 00  Length = 242000 BitCount = 125 ID = 1789
   0.065265 2  722             Rx   d 8 00 00 00 00 00 00 00 00  Length = 242000 BitCount = 125 ID = 1826
   0.065505 2  706             Rx   d 8 03 00 57 00 56 00 00 00  Length = 232000 BitCount = 120 ID = 1798
   0.065755 2  709             Rx   d 8 00 00 00 00 00 00 00 00  Length = 242000 BitCount = 125 ID = 1801
   0.066001 2  742             Rx   d 8 00 00 00 00 00 00 00 10  Length = 238000 BitCount = 123 ID = 1858
   0.066250 2  703             Rx   d 8 00 00 00 00 00 00 00 00  Length = 241032 BitCount = 125 ID = 1795
   0.066502 2  70A             Rx   d 8 00 00 00 00 00 00 00 00  Length = 243032 BitCount = 126 ID = 1802
   0.066752 2  6FE             Rx   d 8 02 00 01 00 00 00 00 00  Length = 242000 BitCount = 125 ID = 1790
   0.067000 2  70B             Rx   d 8 00 00 00 00 00 00 00 00  Length = 240000 BitCount = 124 ID = 1803
   0.067252 2  707             Rx   d 8 00 00 00 00 00 00 00 00  Length = 244000 BitCount = 126 ID = 1799
   0.067502 2  70C             Rx   d 8 00 00 00 00 00 00 00 00  Length = 242000 BitCount = 125 ID = 1804
   0.067738 2  743             Rx   d 8 6E E0 06 32 32 00 00 10  Length = 228000 BitCount = 118 ID = 1859
   0.067978 2  5E              Rx   d 8 80 00 04 00 FE F5 C5 E1  Length = 232000 BitCount = 120 ID = 94
   0.068218 2  94              Rx   d 8 80 00 08 02 00 08 0C 6F  Length = 232000 BitCount = 120 ID = 148
   0.068468 2  702             Rx   d 8 00 00 00 00 00 00 00 00  Length = 242000 BitCount = 125 ID = 1794
   0.068714 2  6FB             Rx   d 8 75 05 00 00 00 00 00 00  Length = 238000 BitCount = 123 ID = 1787
   0.068966 2  6FC             Rx   d 8 00 00 00 00 00 00 00 00  Length = 244000 BitCount = 126 ID = 1788
   0.069218 2  6FF             Rx   d 8 00 00 00 00 00 00 00 00  Length = 244000 BitCount = 126 ID = 1791
   0.069466 2  705             Rx   d 8 00 00 00 00 00 00 B0 29  Length = 240000 BitCount = 124 ID = 1797
   0.069710 2  701             Rx   d 8 B7 02 00 00 00 80 00 00  Length = 236000 BitCount = 122 ID = 1793
   0.069960 2  708             Rx   d 8 00 00 00 00 00 00 00 00  Length = 242000 BitCount = 125 ID = 1800
   0.070202 2  741             Rx   d 8 21 21 0D 00 00 00 38 00  Length = 234000 BitCount = 121 ID = 1857
   0.070456 2  704             Rx   d 8 00 00 00 00 00 00 00 00  Length = 246000 BitCount = 127 ID = 1796
   0.070704 2  721             Rx   d 8 00 00 00 00 00 00 00 00  Length = 240000 BitCount = 124 ID = 1825
   0.070954 2  6FD             Rx   d 8 00 00 00 00 00 00 00 00  Length = 242000 BitCount = 125 ID = 1789
   0.071204 2  722             Rx   d 8 00 00 00 00 00 00 00 00  Length = 242000 BitCount = 125 ID = 1826
   0.071443 2  706             Rx   d 8 03 00 57 00 56 00 00 00  Length = 231036 BitCount = 120 ID = 1798
   0.071693 2  709             Rx   d 8 00 00 00 00 00 00 00 00  Length = 241032 BitCount = 125 ID = 1801
   0.071929 2  742             Rx   d 8 78 80 07 90 01 05 05 05  Length = 228000 BitCount = 118 ID = 1858
   0.072179 2  703             Rx   d 8 00 00 00 00 00 00 00 00  Length = 242000 BitCount = 125 ID = 1795
   0.072431 2  70A             Rx   d 8 00 00 00 00 00 00 00 00  Length = 244000 BitCount = 126 ID = 1802
   0.072681 2  6FE             Rx   d 8 02 00 01 00 00 00 00 00  Length = 242000 BitCount = 125 ID = 1790
   0.072929 2  70B             Rx   d 8 00 00 00 00 00 00 00 00  Length = 240000 BitCount = 124 ID = 1803
   0.073181 2  707             Rx   d 8 00 00 00 00 00 00 00 00  Length = 244000 BitCount = 126 ID = 1799
   0.073431 2  70C             Rx   d 8 00 00 00 00 00 00 00 00  Length = 242000 BitCount = 125 ID = 1804
   0.073663 2  743             Rx   d 8 A5 50 0A FA A0 0F 08 02  Length = 224000 BitCount = 116 ID = 1859
   0.073903 2  5E              Rx   d 8 80 00 04 00 FE F5 C5 E1  Length = 232000 BitCount = 120 ID = 94
   0.074145 2  94              Rx   d 8 80 00 08 02 00 08 0C 7E  Length = 234000 BitCount = 121 ID = 148
   0.074395 2  702             Rx   d 8 00 00 00 00 00 00 00 00  Length = 242000 BitCount = 125 ID = 1794
   0.074641 2  6FB             Rx   d 8 75 05 00 00 00 00 00 00  Length = 238000 BitCount = 123 ID = 1787
   0.074893 2  6FC             Rx   d 8 00 00 00 00 00 00 00 00  Length = 244000 BitCount = 126 ID = 1788
   0.075145 2  6FF             Rx   d 8 00 00 00 00 00 00 00 00  Length = 244000 BitCount = 126 ID = 1791
   0.075393 2  705             Rx   d 8 00 00 00 00 00 00 B0 29  Length = 240000 BitCount = 124 ID = 1797
   0.075637 2  701             Rx   d 8 B7 02 00 00 00 80 00 00  Length = 236000 BitCount = 122 ID = 1793
   0.075887 2  708             Rx   d 8 00 00 00 00 00 00 00 00  Length = 242000 BitCount = 125 ID = 1800
   0.076129 2  741             Rx   d 8 38 32 0F 0F 1E 08 08 10  Length = 234000 BitCount = 121 ID = 1857
   0.076383 2  704             Rx   d 8 00 00 00 00 00 00 00 00  Length = 246000 BitCount = 127 ID = 1796
   0.076630 2  721             Rx   d 8 00 00 00 00 00 00 00 00  Length = 239036 BitCount = 124 ID = 1825
   0.076880 2  6FD             Rx   d 8 00 00 00 00 00 00 00 00  Length = 241032 BitCount = 125 ID = 1789
   0.077130 2  722             Rx   d 8 00 00 00 00 00 00 00 00  Length = 242000 BitCount = 125 ID = 1826
   0.077370 2  706             Rx   d 8 03 00 57 00 56 00 00 00  Length = 232000 BitCount = 120 ID = 1798
   0.077620 2  709             Rx   d 8 00 00 00 00 00 00 00 00  Length = 242000 BitCount = 125 ID = 1801
   0.077866 2  742             Rx   d 8 00 00 00 00 00 00 00 10  Length = 238000 BitCount = 123 ID = 1858
   0.078116 2  703             Rx   d 8 00 00 00 00 00 00 00 00  Length = 242000 BitCount = 125 ID = 1795
   0.078368 2  70A             Rx   d 8 00 00 00 00 00 00 00 00  Length = 244000 BitCount = 126 ID = 1802
   0.078618 2  6FE             Rx   d 8 02 00 01 00 00 00 00 00  Length = 242000 BitCount = 125 ID = 1790
   0.078866 2  70B             Rx   d 8 00 00 00 00 00 00 00 00  Length = 240000 BitCount = 124 ID = 1803
   0.079118 2  707             Rx   d 8 00 00 00 00 00 00 00 00  Length = 244000 BitCount = 126 ID = 1799
   0.079368 2  70C             Rx   d 8 00 00 00 00 00 00 00 00  Length = 242000 BitCount = 125 ID = 1804
   0.079604 2  743             Rx   d 8 6E E0 06 32 32 00 00 10  Length = 228000 BitCount = 118 ID = 1859
   0.079844 2  5E              Rx   d 8 80 00 04 00 FE F5 C5 E1  Length = 232000 BitCount = 120 ID = 94
   0.080084 2  94              Rx   d 8 80 00 08 02 00 08 0C 41  Length = 232000 BitCount = 120 ID = 148
   0.080334 2  702             Rx   d 8 00 00 00 00 00 00 00 00  Length = 242000 BitCount = 125 ID = 1794
   0.080580 2  6FB             Rx   d 8 75 05 00 00 00 00 00 00  Length = 238000 BitCount = 123 ID = 1787
   0.080832 2  6FC             Rx   d 8 00 00 00 00 00 00 00 00  Length = 244000 BitCount = 126 ID = 1788
   0.081084 2  6FF             Rx   d 8 00 00 00 00 00 00 00 00  Length = 244000 BitCount = 126 ID = 1791
   0.081332 2  705             Rx   d 8 00 00 00 00 00 00 B0 29  Length = 240000 BitCount = 124 ID = 1797
   0.081576 2  701             Rx   d 8 B7 02 00 00 00 80 00 00  Length = 236000 BitCount = 122 ID = 1793
   0.081825 2  708             Rx   d 8 00 00 00 00 00 00 00 00  Length = 241032 BitCount = 125 ID = 1800
   0.082073 2  741             Rx   d 8 08 00 00 00 00 00 00 20  Length = 239036 BitCount = 124 ID = 1857
   0.082327 2  704             Rx   d 8 00 00 00 00 00 00 00 00  Length = 245032 BitCount = 127 ID = 1796
   0.082575 2  721             Rx   d 8 00 00 00 00 00 00 00 00  Length = 240000 BitCount = 124 ID = 1825
   0.083271 2  6FD             Rx   d 8 00 00 00 00 00 00 00 00  Length = 242000 BitCount = 125 ID = 1789
   0.083521 2  722             Rx   d 8 00 00 00 00 00 00 00 00  Length = 242000 BitCount = 125 ID = 1826
   0.084265 2  706             Rx   d 8 03 00 57 00 56 00 00 00  Length = 232000 BitCount = 120 ID = 1798
   0.084515 2  709             Rx   d 8 00 00 00 00 00 00 00 00  Length = 242000 BitCount = 125 ID = 1801
   0.084751 2  742             Rx   d 8 78 80 07 90 01 05 05 05  Length = 228000 BitCount = 118 ID = 1858
   0.085273 2  703             Rx   d 8 00 00 00 00 00 00 00 00  Length = 242000 BitCount = 125 ID = 1795
   0.085525 2  70A             Rx   d 8 00 00 00 00 00 00 00 00  Length = 244000 BitCount = 126 ID = 1802
   0.086285 2  6FE             Rx   d 8 02 00 01 00 00 00 00 00  Length = 242000 BitCount = 125 ID = 1790
   0.086533 2  70B             Rx   d 8 00 00 00 00 00 00 00 00  Length = 240000 BitCount = 124 ID = 1803
   0.087300 2  707             Rx   d 8 00 00 00 00 00 00 00 00  Length = 243032 BitCount = 126 ID = 1799
   0.087550 2  70C             Rx   d 8 00 00 00 00 00 00 00 00  Length = 242000 BitCount = 125 ID = 1804
   0.087782 2  743             Rx   d 8 A5 50 0A FA A0 0F 08 02  Length = 224000 BitCount = 116 ID = 1859
   0.088022 2  5E              Rx   d 8 80 00 04 00 FE F5 C5 E1  Length = 232000 BitCount = 120 ID = 94
   0.088264 2  94              Rx   d 8 80 00 08 02 00 08 0C 50  Length = 234000 BitCount = 121 ID = 148
   0.088514 2  702             Rx   d 8 00 00 00 00 00 00 00 00  Length = 242000 BitCount = 125 ID = 1794
   0.090308 2  6FB             Rx   d 8 75 05 00 00 00 00 00 00  Length = 238000 BitCount = 123 ID = 1787
   0.090560 2  6FC             Rx   d 8 00 00 00 00 00 00 00 00  Length = 244000 BitCount = 126 ID = 1788
   0.090812 2  6FF             Rx   d 8 00 00 00 00 00 00 00 00  Length = 244000 BitCount = 126 ID = 1791
   0.091060 2  705             Rx   d 8 00 00 00 00 00 00 B0 29  Length = 240000 BitCount = 124 ID = 1797
   0.091304 2  701             Rx   d 8 B7 02 00 00 00 80 00 00  Length = 236000 BitCount = 122 ID = 1793
   0.091554 2  708             Rx   d 8 00 00 00 00 00 00 00 00  Length = 242000 BitCount = 125 ID = 1800
   0.091796 2  741             Rx   d 8 21 21 0D 00 00 00 38 00  Length = 234000 BitCount = 121 ID = 1857
   0.092283 2  704             Rx   d 8 00 00 00 00 00 00 00 00  Length = 245032 BitCount = 127 ID = 1796
   0.092531 2  721             Rx   d 8 00 00 00 00 00 00 00 00  Length = 239036 BitCount = 124 ID = 1825
   0.093277 2  6FD             Rx   d 8 00 00 00 00 00 00 00 00  Length = 242000 BitCount = 125 ID = 1789
   0.093527 2  722             Rx   d 8 00 00 00 00 00 00 00 00  Length = 242000 BitCount = 125 ID = 1826
   0.094271 2  706             Rx   d 8 03 00 57 00 56 00 00 00  Length = 232000 BitCount = 120 ID = 1798
   0.094521 2  709             Rx   d 8 00 00 00 00 00 00 00 00  Length = 242000 BitCount = 125 ID = 1801
   0.094767 2  742             Rx   d 8 00 00 00 00 00 00 00 10  Length = 238000 BitCount = 123 ID = 1858
   0.095277 2  703             Rx   d 8 00 00 00 00 00 00 00 00  Length = 242000 BitCount = 125 ID = 1795
   0.095529 2  70A             Rx   d 8 00 00 00 00 00 00 00 00  Length = 244000 BitCount = 126 ID = 1802
   0.096273 2  6FE             Rx   d 8 02 00 01 00 00 00 00 00  Length = 242000 BitCount = 125 ID = 1790
   0.096521 2  70B             Rx   d 8 00 00 00 00 00 00 00 00  Length = 240000 BitCount = 124 ID = 1803
   0.097292 2  707             Rx   d 8 00 00 00 00 00 00 00 00  Length = 243032 BitCount = 126 ID = 1799
   0.097542 2  70C             Rx   d 8 00 00 00 00 00 00 00 00  Length = 241032 BitCount = 125 ID = 1804
   0.097778 2  743             Rx   d 8 6E E0 06 32 32 00 00 10  Length = 227036 BitCount = 118 ID = 1859
   0.098018 2  5E              Rx   d 8 80 00 04 00 FE F5 C5 E1  Length = 232000 BitCount = 120 ID = 94
   0.098258 2  94              Rx   d 8 80 00 08 02 00 08 0C 6F  Length = 232000 BitCount = 120 ID = 148
   0.098508 2  702             Rx   d 8 00 00 00 00 00 00 00 00  Length = 242000 BitCount = 125 ID = 1794
   0.100262 2  6FB             Rx   d 8 75 05 00 00 00 00 00 00  Length = 238000 BitCount = 123 ID = 1787
   0.100514 2  6FC             Rx   d 8 00 00 00 00 00 00 00 00  Length = 244000 BitCount = 126 ID = 1788
   0.100766 2  6FF             Rx   d 8 00 00 00 00 00 00 00 00  Length = 244000 BitCount = 126 ID = 1791
   0.101014 2  705             Rx   d 8 00 00 00 00 00 00 B0 29  Length = 240000 BitCount = 124 ID = 1797
   0.101300 2  701             Rx   d 8 B7 02 00 00 00 80 00 00  Length = 236000 BitCount = 122 ID = 1793
   0.101550 2  708             Rx   d 8 00 00 00 00 00 00 00 00  Length = 242000 BitCount = 125 ID = 1800
   0.101792 2  741             Rx   d 8 38 32 0F 0F 1E 08 08 10  Length = 234000 BitCount = 121 ID = 1857
   0.102290 2  704             Rx   d 8 00 00 00 00 00 00 00 00  Length = 246000 BitCount = 127 ID = 1796
   0.102537 2  721             Rx   d 8 00 00 00 00 00 00 00 00  Length = 239036 BitCount = 124 ID = 1825
   0.103275 2  6FD             Rx   d 8 00 00 00 00 00 00 00 00  Length = 242000 BitCount = 125 ID = 1789
   0.103525 2  722             Rx   d 8 00 00 00 00 00 00 00 00  Length = 242000 BitCount = 125 ID = 1826
   0.104269 2  706             Rx   d 8 03 00 57 00 56 00 00 00  Length = 232000 BitCount = 120 ID = 1798
   0.104519 2  709             Rx   d 8 00 00 00 00 00 00 00 00  Length = 242000 BitCount = 125 ID = 1801
   0.104755 2  742             Rx   d 8 78 80 07 90 01 05 05 05  Length = 228000 BitCount = 118 ID = 1858
   0.105273 2  703             Rx   d 8 00 00 00 00 00 00 00 00  Length = 242000 BitCount = 125 ID = 1795
   0.105525 2  70A             Rx   d 8 00 00 00 00 00 00 00 00  Length = 244000 BitCount = 126 ID = 1802
   0.106275 2  6FE             Rx   d 8 02 00 01 00 00 00 00 00  Length = 242000 BitCount = 125 ID = 1790
   0.106523 2  70B             Rx   d 8 00 00 00 00 00 00 00 00  Length = 240000 BitCount = 124 ID = 1803
   0.107287 2  707             Rx   d 8 00 00 00 00 00 00 00 00  Length = 244000 BitCount = 126 ID = 1799
   0.107537 2  70C             Rx   d 8 00 00 00 00 00 00 00 00  Length = 242000 BitCount = 125 ID = 1804
   0.107768 2  743             Rx   d 8 A5 50 0A FA A0 0F 08 02  Length = 223036 BitCount = 116 ID = 1859
   0.108008 2  5E              Rx   d 8 80 00 04 00 FE F5 C5 E1  Length = 231036 BitCount = 120 ID = 94
   0.108250 2  94              Rx   d 8 80 00 08 02 00 08 0C 7E  Length = 233036 BitCount = 121 ID = 148
   0.108500 2  702             Rx   d 8 00 00 00 00 00 00 00 00  Length = 242000 BitCount = 125 ID = 1794
   0.110264 2  6FB             Rx   d 8 75 05 00 00 00 00 00 00  Length = 238000 BitCount = 123 ID = 1787
   0.110516 2  6FC             Rx   d 8 00 00 00 00 00 00 00 00  Length = 244000 BitCount = 126 ID = 1788
   0.110768 2  6FF             Rx   d 8 00 00 00 00 00 00 00 00  Length = 244000 BitCount = 126 ID = 1791
   0.111016 2  705             Rx   d 8 00 00 00 00 00 00 B0 29  Length = 240000 BitCount = 124 ID = 1797
   0.111264 2  701             Rx   d 8 B7 02 00 00 00 80 00 00  Length = 236000 BitCount = 122 ID = 1793
   0.111514 2  708             Rx   d 8 00 00 00 00 00 00 00 00  Length = 242000 BitCount = 125 ID = 1800
   0.111762 2  741             Rx   d 8 08 00 00 00 00 00 00 20  Length = 240000 BitCount = 124 ID = 1857
   0.112310 2  704             Rx   d 8 00 00 00 00 00 00 00 00  Length = 246000 BitCount = 127 ID = 1796
   0.112558 2  721             Rx   d 8 00 00 00 00 00 00 00 00  Length = 240000 BitCount = 124 ID = 1825
   0.113287 2  6FD             Rx   d 8 00 00 00 00 00 00 00 00  Length = 241032 BitCount = 125 ID = 1789
   0.113537 2  722             Rx   d 8 00 00 00 00 00 00 00 00  Length = 242000 BitCount = 125 ID = 1826
   0.114269 2  706             Rx   d 8 03 00 57 00 56 00 00 00  Length = 232000 BitCount = 120 ID = 1798
   0.114519 2  709             Rx   d 8 00 00 00 00 00 00 00 00  Length = 242000 BitCount = 125 ID = 1801
   0.114765 2  742             Rx   d 8 00 00 00 00 00 00 00 10  Length = 238000 BitCount = 123 ID = 1858
   0.115269 2  703             Rx   d 8 00 00 00 00 00 00 00 00  Length = 242000 BitCount = 125 ID = 1795
   0.115521 2  70A             Rx   d 8 00 00 00 00 00 00 00 00  Length = 244000 BitCount = 126 ID = 1802
   0.116273 2  6FE             Rx   d 8 02 00 01 00 00 00 00 00  Length = 242000 BitCount = 125 ID = 1790
   0.116521 2  70B             Rx   d 8 00 00 00 00 00 00 00 00  Length = 240000 BitCount = 124 ID = 1803
   0.117287 2  707             Rx   d 8 00 00 00 00 00 00 00 00  Length = 244000 BitCount = 126 ID = 1799
   0.117537 2  70C             Rx   d 8 00 00 00 00 00 00 00 00  Length = 242000 BitCount = 125 ID = 1804
   0.117773 2  743             Rx   d 8 6E E0 06 32 32 00 00 10  Length = 228000 BitCount = 118 ID = 1859
   0.118012 2  5E              Rx   d 8 80 00 04 00 FE F5 C5 E1  Length = 231036 BitCount = 120 ID = 94
   0.118252 2  94              Rx   d 8 80 00 08 02 00 08 0C 41  Length = 231036 BitCount = 120 ID = 148
   0.118502 2  702             Rx   d 8 00 00 00 00 00 00 00 00  Length = 241032 BitCount = 125 ID = 1794
   0.120264 2  6FB             Rx   d 8 75 05 00 00 00 00 00 00  Length = 238000 BitCount = 123 ID = 1787
   0.120516 2  6FC             Rx   d 8 00 00 00 00 00 00 00 00  Length = 244000 BitCount = 126 ID = 1788
   0.120768 2  6FF             Rx   d 8 00 00 00 00 00 00 00 00  Length = 244000 BitCount = 126 ID = 1791
   0.121016 2  705             Rx   d 8 00 00 00 00 00 00 B0 29  Length = 240000 BitCount = 124 ID = 1797
   0.121266 2  701             Rx   d 8 B8 02 00 00 00 80 00 00  Length = 238000 BitCount = 123 ID = 1793
   0.121516 2  708             Rx   d 8 00 00 00 00 00 00 00 00  Length = 242000 BitCount = 125 ID = 1800
   0.121758 2  741             Rx   d 8 21 21 0D 00 00 00 38 00  Length = 234000 BitCount = 121 ID = 1857
   0.122304 2  704             Rx   d 8 00 00 00 00 00 00 00 00  Length = 246000 BitCount = 127 ID = 1796
   0.122552 2  721             Rx   d 8 00 00 00 00 00 00 00 00  Length = 240000 BitCount = 124 ID = 1825
   0.123287 2  6FD             Rx   d 8 00 00 00 00 00 00 00 00  Length = 241032 BitCount = 125 ID = 1789
   0.123537 2  722             Rx   d 8 00 00 00 00 00 00 00 00  Length = 241032 BitCount = 125 ID = 1826
   0.124265 2  706             Rx   d 8 03 00 57 00 56 00 00 00  Length = 232000 BitCount = 120 ID = 1798
   0.124515 2  709             Rx   d 8 00 00 00 00 00 00 00 00  Length = 242000 BitCount = 125 ID = 1801
   0.124751 2  742             Rx   d 8 78 80 07 90 01 05 05 05  Length = 228000 BitCount = 118 ID = 1858
   0.125271 2  703             Rx   d 8 00 00 00 00 00 00 00 00  Length = 242000 BitCount = 125 ID = 1795
   0.125523 2  70A             Rx   d 8 00 00 00 00 00 00 00 00  Length = 244000 BitCount = 126 ID = 1802
   0.126271 2  6FE             Rx   d 8 02 00 01 00 00 00 00 00  Length = 242000 BitCount = 125 ID = 1790
   0.126519 2  70B             Rx   d 8 00 00 00 00 00 00 00 00  Length = 240000 BitCount = 124 ID = 1803
   0.127283 2  707             Rx   d 8 00 00 00 00 00 00 00 00  Length = 244000 BitCount = 126 ID = 1799
   0.127533 2  70C             Rx   d 8 00 00 00 00 00 00 00 00  Length = 242000 BitCount = 125 ID = 1804
   0.127765 2  743             Rx   d 8 A5 50 0A FA A0 0F 08 02  Length = 224000 BitCount = 116 ID = 1859
   0.128005 2  5E              Rx   d 8 80 00 04 00 FE F5 C5 E1  Length = 232000 BitCount = 120 ID = 94
   0.128247 2  94              Rx   d 8 80 00 08 02 00 08 0C 50  Length = 234000 BitCount = 121 ID = 148
   0.128496 2  702             Rx   d 8 00 00 00 00 00 00 00 00  Length = 241032 BitCount = 125 ID = 1794
   0.130340 2  6FB             Rx   d 8 F5 05 00 00 00 00 00 00  Length = 236000 BitCount = 122 ID = 1787
   0.130592 2  6FC             Rx   d 8 00 00 00 00 00 00 00 00  Length = 244000 BitCount = 126 ID = 1788
   0.130844 2  6FF             Rx   d 8 00 00 00 00 00 00 00 00  Length = 244000 BitCount = 126 ID = 1791
   0.131092 2  705             Rx   d 8 00 00 00 00 00 00 B0 29  Length = 240000 BitCount = 124 ID = 1797
   0.131334 2  701             Rx   d 8 B8 02 00 00 00 80 00 30  Length = 234000 BitCount = 121 ID = 1793
   0.131584 2  708             Rx   d 8 00 00 00 00 00 00 00 00  Length = 242000 BitCount = 125 ID = 1800
   0.131826 2  741             Rx   d 8 38 32 0F 0F 1E 08 08 10  Length = 234000 BitCount = 121 ID = 1857
   0.132458 2  704             Rx   d 8 00 00 00 00 00 00 00 00  Length = 246000 BitCount = 127 ID = 1796
   0.132706 2  721             Rx   d 8 00 00 00 00 00 00 00 00  Length = 240000 BitCount = 124 ID = 1825
   0.133308 1  191             Rx   d 8 04 00 00 00 00 00 00 27  Length = 236000 BitCount = 122 ID = 401
   0.133330 2  6FD             Rx   d 8 00 00 00 00 00 00 00 00  Length = 242000 BitCount = 125 ID = 1789
   0.133556 1  130             Rx   d 8 00 00 00 00 00 00 01 21  Length = 240000 BitCount = 124 ID = 304
   0.133580 2  722             Rx   d 8 00 00 00 00 00 00 00 00  Length = 242000 BitCount = 125 ID = 1826
   0.134279 2  706             Rx   d 8 03 00 57 00 56 00 00 00  Length = 232000 BitCount = 120 ID = 1798
   0.134529 2  709             Rx   d 8 00 00 00 00 00 00 00 00  Length = 242000 BitCount = 125 ID = 1801
   0.134775 2  742             Rx   d 8 00 00 00 00 00 00 00 10  Length = 238000 BitCount = 123 ID = 1858
   0.135279 2  703             Rx   d 8 00 00 00 00 00 00 00 00  Length = 242000 BitCount = 125 ID = 1795
   0.135531 2  70A             Rx   d 8 00 00 00 00 00 00 00 00  Length = 244000 BitCount = 126 ID = 1802
   0.136273 2  6FE             Rx   d 8 02 00 01 00 00 00 00 00  Length = 242000 BitCount = 125 ID = 1790
   0.136521 2  70B             Rx   d 8 00 00 00 00 00 00 00 00  Length = 240000 BitCount = 124 ID = 1803
   0.136727 2  156             Rx   d 6 00 00 00 00 03 27  Length = 198000 BitCount = 103 ID = 342
   0.137289 1  140             Rx   d 8 80 E5 A1 00 00 00 00 2B  Length = 231036 BitCount = 120 ID = 320
   0.137313 2  707             Rx   d 8 00 00 00 00 00 00 00 00  Length = 244000 BitCount = 126 ID = 1799
   0.137563 2  70C             Rx   d 8 00 00 00 00 00 00 00 00  Length = 242000 BitCount = 125 ID = 1804
   0.137799 2  743             Rx   d 8 6E E0 06 32 32 00 00 10  Length = 228000 BitCount = 118 ID = 1859
   0.138039 2  5E              Rx   d 8 80 00 04 00 FE F5 C5 E1  Length = 232000 BitCount = 120 ID = 94
   0.138279 2  94              Rx   d 8 80 00 08 02 00 08 0C 6F  Length = 232000 BitCount = 120 ID = 148
   0.138487 2  156             Rx   d 6 00 00 00 00 07 05  Length = 200000 BitCount = 104 ID = 342
   0.138737 2  702             Rx   d 8 00 00 00 00 00 00 00 00  Length = 242000 BitCount = 125 ID = 1794
   0.139279 1  83              Rx   d 8 00 00 00 00 00 00 00 3A  Length = 242000 BitCount = 125 ID = 131
   0.140277 1  17C             Rx   d 8 00 00 03 1F 00 00 00 3E  Length = 242000 BitCount = 125 ID = 380
   0.140286 2  6FB             Rx   d 8 F5 05 00 00 00 00 00 00  Length = 236000 BitCount = 122 ID = 1787
   0.140487 1  89              Rx   d 6 00 00 00 00 00 34  Length = 202000 BitCount = 105 ID = 137
   0.140538 2  6FC             Rx   d 8 00 00 00 00 00 00 00 00  Length = 244000 BitCount = 126 ID = 1788
   0.140790 2  6FF             Rx   d 8 00 00 00 00 00 00 00 00  Length = 244000 BitCount = 126 ID = 1791
   0.141038 2  705             Rx   d 8 00 00 00 00 00 00 B0 29  Length = 240000 BitCount = 124 ID = 1797
   0.141280 2  701             Rx   d 8 B8 02 00 00 00 80 00 30  Length = 234000 BitCount = 121 ID = 1793
   0.141530 2  708             Rx   d 8 00 00 00 00 00 00 00 00  Length = 242000 BitCount = 125 ID = 1800
   0.141778 2  741             Rx   d 8 08 00 00 00 00 00 00 20  Length = 240000 BitCount = 124 ID = 1857
   0.142270 2  704             Rx   d 8 00 00 00 00 00 00 00 00  Length = 246000 BitCount = 127 ID = 1796
   0.142518 2  721             Rx   d 8 00 00 00 00 00 00 00 00  Length = 240000 BitCount = 124 ID = 1825
   0.143304 1  191             Rx   d 8 04 00 00 00 00 00 00 36  Length = 236000 BitCount = 122 ID = 401
   0.143324 2  6FD             Rx   d 8 00 00 00 00 00 00 00 00  Length = 242000 BitCount = 125 ID = 1789
   0.143552 1  130             Rx   d 8 00 00 00 00 00 00 01 30  Length = 240000 BitCount = 124 ID = 304
   0.143574 2  722             Rx   d 8 00 00 00 00 00 00 00 00  Length = 242000 BitCount = 125 ID = 1826
   0.144289 2  706             Rx   d 8 03 00 57 00 56 00 00 00  Length = 231036 BitCount = 120 ID = 1798
   0.144539 2  709             Rx   d 8 00 00 00 00 00 00 00 00  Length = 241032 BitCount = 125 ID = 1801
   0.144775 2  742             Rx   d 8 78 80 07 90 01 05 05 05  Length = 228000 BitCount = 118 ID = 1858
   0.145277 2  703             Rx   d 8 00 00 00 00 00 00 00 00  Length = 242000 BitCount = 125 ID = 1795
   0.145529 2  70A             Rx   d 8 00 00 00 00 00 00 00 00  Length = 244000 BitCount = 126 ID = 1802
   0.146275 2  6FE             Rx   d 8 02 00 01 00 00 00 00 00  Length = 242000 BitCount = 125 ID = 1790
   0.146523 2  70B             Rx   d 8 00 00 00 00 00 00 00 00  Length = 240000 BitCount = 124 ID = 1803
   0.146729 2  156             Rx   d 6 00 00 00 00 03 36  Length = 198000 BitCount = 103 ID = 342
   0.147280 1  140             Rx   d 8 80 E5 A1 00 00 00 00 3A  Length = 230000 BitCount = 119 ID = 320
   0.147305 2  707             Rx   d 8 00 00 00 00 00 00 00 00  Length = 244000 BitCount = 126 ID = 1799
   0.147555 2  70C             Rx   d 8 00 00 00 00 00 00 00 00  Length = 242000 BitCount = 125 ID = 1804
   0.147787 2  743             Rx   d 8 A5 50 0A FA A0 0F 08 02  Length = 224000 BitCount = 116 ID = 1859
   0.148027 2  5E              Rx   d 8 80 00 04 00 FE F5 C5 E1  Length = 232000 BitCount = 120 ID = 94
   0.148269 2  94              Rx   d 8 80 00 08 02 00 08 0C 7E  Length = 234000 BitCount = 121 ID = 148
   0.148477 2  156             Rx   d 6 00 00 00 00 07 14  Length = 200000 BitCount = 104 ID = 342
   0.148727 2  702             Rx   d 8 00 00 00 00 00 00 00 00  Length = 242000 BitCount = 125 ID = 1794
   0.149271 1  83              Rx   d 8 00 00 00 00 00 00 00 0D  Length = 240000 BitCount = 124 ID = 131
   0.150275 1  17C             Rx   d 8 00 00 03 1F 00 00 00 01  Length = 244000 BitCount = 126 ID = 380
   0.150282 2  6FB             Rx   d 8 F5 05 00 00 00 00 00 00  Length = 236000 BitCount = 122 ID = 1787
   0.150485 1  89              Rx   d 6 00 00 00 00 00 07  Length = 202000 BitCount = 105 ID = 137
   0.150534 2  6FC             Rx   d 8 00 00 00 00 00 00 00 00  Length = 244000 BitCount = 126 ID = 1788
   0.150786 2  6FF             Rx   d 8 00 00 00 00 00 00 00 00  Length = 244000 BitCount = 126 ID = 1791
   0.151034 2  705             Rx   d 8 00 00 00 00 00 00 B0 29  Length = 240000 BitCount = 124 ID = 1797
   0.151280 2  701             Rx   d 8 B6 02 00 00 00 80 00 30  Length = 238000 BitCount = 123 ID = 1793
   0.151530 2  708             Rx   d 8 00 00 00 00 00 00 00 00  Length = 242000 BitCount = 125 ID = 1800
   0.151772 2  741             Rx   d 8 21 21 0D 00 00 00 38 00  Length = 234000 BitCount = 121 ID = 1857
   0.152274 2  704             Rx   d 8 00 00 00 00 00 00 00 00  Length = 246000 BitCount = 127 ID = 1796
   0.152522 2  721             Rx   d 8 00 00 00 00 00 00 00 00  Length = 240000 BitCount = 124 ID = 1825
   0.153300 1  191             Rx   d 8 04 00 00 00 00 00 00 09  Length = 235036 BitCount = 122 ID = 401
   0.153322 2  6FD             Rx   d 8 00 00 00 00 00 00 00 00  Length = 242000 BitCount = 125 ID = 1789
   0.153548 1  130             Rx   d 8 00 00 00 00 00 00 01 03  Length = 240000 BitCount = 124 ID = 304
   0.153572 2  722             Rx   d 8 00 00 00 00 00 00 00 00  Length = 242000 BitCount = 125 ID = 1826
   0.154298 2  706             Rx   d 8 03 00 57 00 56 00 00 00  Length = 232000 BitCount = 120 ID = 1798
   0.154547 2  709             Rx   d 8 00 00 00 00 00 00 00 00  Length = 241032 BitCount = 125 ID = 1801
   0.154793 2  742             Rx   d 8 00 00 00 00 00 00 00 10  Length = 237036 BitCount = 123 ID = 1858
   0.155271 2  703             Rx   d 8 00 00 00 00 00 00 00 00  Length = 242000 BitCount = 125 ID = 1795
   0.155523 2  70A             Rx   d 8 00 00 00 00 00 00 00 00  Length = 244000 BitCount = 126 ID = 1802
   0.156275 2  6FE             Rx   d 8 02 00 01 00 00 00 00 00  Length = 242000 BitCount = 125 ID = 1790
   0.156523 2  70B             Rx   d 8 00 00 00 00 00 00 00 00  Length = 240000 BitCount = 124 ID = 1803
   0.156729 2  156             Rx   d 6 00 00 00 00 03 09  Length = 198000 BitCount = 103 ID = 342
   0.157282 1  140             Rx   d 8 80 E5 A1 00 00 00 00 0D  Length = 232000 BitCount = 120 ID = 320
   0.157305 2  707             Rx   d 8 00 00 00 00 00 00 00 00  Length = 244000 BitCount = 126 ID = 1799
   0.157555 2  70C             Rx   d 8 00 00 00 00 00 00 00 00  Length = 242000 BitCount = 125 ID = 1804
   0.157791 2  743             Rx   d 8 6E E0 06 32 32 00 00 10  Length = 228000 BitCount = 118 ID = 1859
   0.158031 2  5E              Rx   d 8 80 00 04 00 FE F5 C5 E1  Length = 232000 BitCount = 120 ID = 94
   0.158271 2  94              Rx   d 8 80 00 08 02 00 08 0C 41  Length = 232000 BitCount = 120 ID = 148
   0.158479 2  156             Rx   d 6 00 00 00 00 07 23  Length = 200000 BitCount = 104 ID = 342
   0.158729 2  702             Rx   d 8 00 00 00 00 00 00 00 00  Length = 242000 BitCount = 125 ID = 1794
   0.159263 1  83              Rx   d 8 00 00 00 00 00 00 00 1C  Length = 240000 BitCount = 124 ID = 131
   0.160273 1  17C             Rx   d 8 00 00 03 1F 00 00 00 10  Length = 242000 BitCount = 125 ID = 380
   0.160282 2  6FB             Rx   d 8 F5 05 00 00 00 00 00 00  Length = 236000 BitCount = 122 ID = 1787
   0.160479 1  89              Rx   d 6 00 00 00 00 00 16  Length = 198000 BitCount = 103 ID = 137
   0.160534 2  6FC             Rx   d 8 00 00 00 00 00 00 00 00  Length = 244000 BitCount = 126 ID = 1788
   0.160786 2  6FF             Rx   d 8 00 00 00 00 00 00 00 00  Length = 244000 BitCount = 126 ID = 1791
   0.161034 2  705             Rx   d 8 00 00 00 00 00 00 B0 29  Length = 240000 BitCount = 124 ID = 1797
   0.161276 2  701             Rx   d 8 B7 02 00 00 00 80 00 30  Length = 234000 BitCount = 121 ID = 1793
   0.161526 2  708             Rx   d 8 00 00 00 00 00 00 00 00  Length = 242000 BitCount = 125 ID = 1800
   0.161768 2  741             Rx   d 8 38 32 0F 0F 1E 08 08 10  Length = 234000 BitCount = 121 ID = 1857
   0.162272 2  704             Rx   d 8 00 00 00 00 00 00 00 00  Length = 246000 BitCount = 127 ID = 1796
   0.162520 2  721             Rx   d 8 00 00 00 00 00 00 00 00  Length = 240000 BitCount = 124 ID = 1825
   0.163306 1  191             Rx   d 8 04 00 00 00 00 00 00 18  Length = 235036 BitCount = 122 ID = 401
   0.163328 2  6FD             Rx   d 8 00 00 00 00 00 00 00 00  Length = 242000 BitCount = 125 ID = 1789
   0.163552 1  130             Rx   d 8 00 00 00 00 00 00 01 12  Length = 237036 BitCount = 123 ID = 304
   0.163578 2  722             Rx   d 8 00 00 00 00 00 00 00 00  Length = 242000 BitCount = 125 ID = 1826
   0.164310 2  706             Rx   d 8 03 00 57 00 56 00 00 00  Length = 232000 BitCount = 120 ID = 1798
   0.164560 2  709             Rx   d 8 00 00 00 00 00 00 00 00  Length = 242000 BitCount = 125 ID = 1801
   0.164795 2  742             Rx   d 8 78 80 07 90 01 05 05 05  Length = 227036 BitCount = 118 ID = 1858
   0.165287 2  703             Rx   d 8 00 00 00 00 00 00 00 00  Length = 241032 BitCount = 125 ID = 1795
   0.165539 2  70A             Rx   d 8 00 00 00 00 00 00 00 00  Length = 244000 BitCount = 126 ID = 1802
   0.166283 2  6FE             Rx   d 8 02 00 01 00 00 00 00 00  Length = 242000 BitCount = 125 ID = 1790
   0.166531 2  70B             Rx   d 8 00 00 00 00 00 00 00 00  Length = 240000 BitCount = 124 ID = 1803
   0.166739 2  156             Rx   d 6 00 00 00 00 03 18  Length = 200000 BitCount = 104 ID = 342
   0.167282 1  140             Rx   d 8 80 E5 A1 00 00 00 00 1C  Length = 232000 BitCount = 120 ID = 320
   0.167303 2  707             Rx   d 8 00 00 00 00 00 00 00 00  Length = 244000 BitCount = 126 ID = 1799
   0.167553 2  70C             Rx   d 8 00 00 00 00 00 00 00 00  Length = 242000 BitCount = 125 ID = 1804
   0.167785 2  743             Rx   d 8 A5 50 0A FA A0 0F 08 02  Length = 224000 BitCount = 116 ID = 1859
   0.168025 2  5E              Rx   d 8 80 00 04 00 FE F5 C5 E1  Length = 232000 BitCount = 120 ID = 94
   0.168267 2  94              Rx   d 8 80 00 08 02 00 08 0C 50  Length = 234000 BitCount = 121 ID = 148
   0.168473 2  156             Rx   d 6 00 00 00 00 07 32  Length = 198000 BitCount = 103 ID = 342
   0.168723 2  702             Rx   d 8 00 00 00 00 00 00 00 00  Length = 242000 BitCount = 125 ID = 1794
   0.169267 1  324             Rx   d 8 28 28 00 00 00 00 00 0B  Length = 238000 BitCount = 123 ID = 804
   0.169517 1  83              Rx   d 8 00 00 00 00 00 00 00 2B  Length = 242000 BitCount = 125 ID = 131
   0.170271 1  17C             Rx   d 8 00 00 03 1F 00 00 00 2F  Length = 240000 BitCount = 124 ID = 380
   0.170282 2  6FB             Rx   d 8 F5 05 00 00 00 00 00 00  Length = 235036 BitCount = 122 ID = 1787
   0.170479 1  89              Rx   d 6 00 00 00 00 00 25  Length = 200000 BitCount = 104 ID = 137
   0.170534 2  6FC             Rx   d 8 00 00 00 00 00 00 00 00  Length = 243032 BitCount = 126 ID = 1788
   0.170786 2  6FF             Rx   d 8 00 00 00 00 00 00 00 00  Length = 244000 BitCount = 126 ID = 1791
   0.171034 2  705             Rx   d 8 00 00 00 00 00 00 B0 29  Length = 240000 BitCount = 124 ID = 1797
   0.171276 2  701             Rx   d 8 B7 02 00 00 00 80 00 30  Length = 234000 BitCount = 121 ID = 1793
   0.171526 2  708             Rx   d 8 00 00 00 00 00 00 00 00  Length = 242000 BitCount = 125 ID = 1800
   0.171774 2  741             Rx   d 8 08 00 00 00 00 00 00 20  Length = 240000 BitCount = 124 ID = 1857
   0.172268 2  704             Rx   d 8 00 00 00 00 00 00 00 00  Length = 246000 BitCount = 127 ID = 1796
   0.172516 2  721             Rx   d 8 00 00 00 00 00 00 00 00  Length = 240000 BitCount = 124 ID = 1825
   0.173259 1  191             Rx   d 8 04 00 00 00 00 00 00 27  Length = 236000 BitCount = 122 ID = 401
   0.173280 2  6FD             Rx   d 8 00 00 00 00 00 00 00 00  Length = 242000 BitCount = 125 ID = 1789
   0.173507 1  130             Rx   d 8 00 00 00 00 00 00 01 21  Length = 240000 BitCount = 124 ID = 304
   0.173530 2  722             Rx   d 8 00 00 00 00 00 00 00 00  Length = 242000 BitCount = 125 ID = 1826
   0.174304 2  706             Rx   d 8 03 00 57 00 56 00 00 00  Length = 232000 BitCount = 120 ID = 1798
   0.174554 2  709             Rx   d 8 00 00 00 00 00 00 00 00  Length = 242000 BitCount = 125 ID = 1801
   0.174800 2  742             Rx   d 8 00 00 00 00 00 00 00 10  Length = 238000 BitCount = 123 ID = 1858
   0.175286 1  326             Rx   d 8 00 00 00 00 00 00 40 09  Length = 238000 BitCount = 123 ID = 806
   0.175299 2  703             Rx   d 8 00 00 00 00 00 00 00 00  Length = 241032 BitCount = 125 ID = 1795
   0.175551 2  70A             Rx   d 8 00 00 00 00 00 00 00 00  Length = 243032 BitCount = 126 ID = 1802
   0.176276 1  374             Rx   d 8 28 00 00 00 00 00 00 00  Length = 244000 BitCount = 126 ID = 884
   0.176283 2  6FE             Rx   d 8 02 00 01 00 00 00 00 00  Length = 242000 BitCount = 125 ID = 1790
   0.176531 2  70B             Rx   d 8 00 00 00 00 00 00 00 00  Length = 240000 BitCount = 124 ID = 1803
   0.176737 2  156             Rx   d 6 00 00 00 00 03 27  Length = 198000 BitCount = 103 ID = 342
   0.177280 1  140             Rx   d 8 80 E5 A1 00 00 00 00 2B  Length = 232000 BitCount = 120 ID = 320
   0.177301 2  707             Rx   d 8 00 00 00 00 00 00 00 00  Length = 244000 BitCount = 126 ID = 1799
   0.177551 2  70C             Rx   d 8 00 00 00 00 00 00 00 00  Length = 242000 BitCount = 125 ID = 1804
   0.177787 2  743             Rx   d 8 6E E0 06 32 32 00 00 10  Length = 228000 BitCount = 118 ID = 1859
   0.178027 2  5E              Rx   d 8 80 00 04 00 FE F5 C5 E1  Length = 232000 BitCount = 120 ID = 94
   0.178267 2  94              Rx   d 8 80 00 08 02 00 08 0C 6F  Length = 232000 BitCount = 120 ID = 148
   0.178475 2  156             Rx   d 6 00 00 00 00 07 05  Length = 200000 BitCount = 104 ID = 342
   0.178725 2  702             Rx   d 8 00 00 00 00 00 00 00 00  Length = 242000 BitCount = 125 ID = 1794
   0.179267 1  83              Rx   d 8 00 00 00 00 00 00 00 3A  Length = 241032 BitCount = 125 ID = 131
   0.180275 1  17C             Rx   d 8 00 00 03 1F 00 00 00 3E  Length = 242000 BitCount = 125 ID = 380
   0.180285 2  6FB             Rx   d 8 F5 05 00 00 00 00 00 00  Length = 236000 BitCount = 122 ID = 1787
   0.180485 1  89              Rx   d 6 00 00 00 00 00 34  Length = 202000 BitCount = 105 ID = 137
   0.180536 2  6FC             Rx   d 8 00 00 00 00 00 00 00 00  Length = 243032 BitCount = 126 ID = 1788
   0.180788 2  6FF             Rx   d 8 00 00 00 00 00 00 00 00  Length = 243032 BitCount = 126 ID = 1791
   0.181036 2  705             Rx   d 8 00 00 00 00 00 00 B0 29  Length = 240000 BitCount = 124 ID = 1797
   0.181278 2  701             Rx   d 8 B7 02 00 00 00 80 00 30  Length = 234000 BitCount = 121 ID = 1793
   0.181528 2  708             Rx   d 8 00 00 00 00 00 00 00 00  Length = 242000 BitCount = 125 ID = 1800
   0.181770 2  741             Rx   d 8 21 21 0D 00 00 00 38 00  Length = 234000 BitCount = 121 ID = 1857
   0.182272 2  704             Rx   d 8 00 00 00 00 00 00 00 00  Length = 246000 BitCount = 127 ID = 1796
   0.182520 2  721             Rx   d 8 00 00 00 00 00 00 00 00  Length = 240000 BitCount = 124 ID = 1825
   0.183261 1  191             Rx   d 8 04 00 00 00 00 00 00 36  Length = 236000 BitCount = 122 ID = 401
   0.183282 2  6FD             Rx   d 8 00 00 00 00 00 00 00 00  Length = 242000 BitCount = 125 ID = 1789
   0.183509 1  130             Rx   d 8 00 00 00 00 00 00 01 30  Length = 240000 BitCount = 124 ID = 304
   0.183532 2  722             Rx   d 8 00 00 00 00 00 00 00 00  Length = 242000 BitCount = 125 ID = 1826
   0.184262 2  706             Rx   d 8 03 00 57 00 56 00 00 00  Length = 232000 BitCount = 120 ID = 1798
   0.184512 2  709             Rx   d 8 00 00 00 00 00 00 00 00  Length = 242000 BitCount = 125 ID = 1801
   0.184748 2  742             Rx   d 8 78 80 07 90 01 05 05 05  Length = 228000 BitCount = 118 ID = 1858
   0.185300 2  703             Rx   d 8 00 00 00 00 00 00 00 00  Length = 242000 BitCount = 125 ID = 1795
   0.185551 2  70A             Rx   d 8 00 00 00 00 00 00 00 00  Length = 243032 BitCount = 126 ID = 1802
   0.186281 2  6FE             Rx   d 8 02 00 01 00 00 00 00 00  Length = 242000 BitCount = 125 ID = 1790
   0.186529 2  70B             Rx   d 8 00 00 00 00 00 00 00 00  Length = 240000 BitCount = 124 ID = 1803
   0.186735 2  156             Rx   d 6 00 00 00 00 03 36  Length = 198000 BitCount = 103 ID = 342
   0.187280 1  140             Rx   d 8 80 E5 A1 00 00 00 00 3A  Length = 230000 BitCount = 119 ID = 320
   0.187303 2  707             Rx   d 8 00 00 00 00 00 00 00 00  Length = 244000 BitCount = 126 ID = 1799
   0.187553 2  70C             Rx   d 8 00 00 00 00 00 00 00 00  Length = 242000 BitCount = 125 ID = 1804
   0.187785 2  743             Rx   d 8 A5 50 0A FA A0 0F 08 02  Length = 224000 BitCount = 116 ID = 1859
   0.188025 2  5E              Rx   d 8 80 00 04 00 FE F5 C5 E1  Length = 232000 BitCount = 120 ID = 94
   0.188267 2  94              Rx   d 8 80 00 08 02 00 08 0C 7E  Length = 234000 BitCount = 121 ID = 148
   0.188475 2  156             Rx   d 6 00 00 00 00 07 14  Length = 200000 BitCount = 104 ID = 342
   0.188725 2  702             Rx   d 8 00 00 00 00 00 00 00 00  Length = 242000 BitCount = 125 ID = 1794
   0.189269 1  83              Rx   d 8 00 00 00 00 00 00 00 0D  Length = 239036 BitCount = 124 ID = 131
   0.190277 1  17C             Rx   d 8 00 00 03 1F 00 00 00 01  Length = 244000 BitCount = 126 ID = 380
   0.190285 2  6FB             Rx   d 8 F5 05 00 00 00 00 00 00  Length = 236000 BitCount = 122 ID = 1787
   0.190487 1  89              Rx   d 6 00 00 00 00 00 07  Length = 202000 BitCount = 105 ID = 137
   0.190537 2  6FC             Rx   d 8 00 00 00 00 00 00 00 00  Length = 244000 BitCount = 126 ID = 1788
   0.190788 2  6FF             Rx   d 8 00 00 00 00 00 00 00 00  Length = 243032 BitCount = 126 ID = 1791
   0.191036 2  705             Rx   d 8 00 00 00 00 00 00 B0 29  Length = 239036 BitCount = 124 ID = 1797
   0.191278 2  701             Rx   d 8 B7 02 00 00 00 80 00 30  Length = 233036 BitCount = 121 ID = 1793
   0.191528 2  708             Rx   d 8 00 00 00 00 00 00 00 00  Length = 242000 BitCount = 125 ID = 1800
   0.191770 2  741             Rx   d 8 38 32 0F 0F 1E 08 08 10  Length = 234000 BitCount = 121 ID = 1857
   0.192268 2  704             Rx   d 8 00 00 00 00 00 00 00 00  Length = 246000 BitCount = 127 ID = 1796
   0.192516 2  721             Rx   d 8 00 00 00 00 00 00 00 00  Length = 240000 BitCount = 124 ID = 1825
   0.193261 1  191             Rx   d 8 04 00 00 00 00 00 00 09  Length = 236000 BitCount = 122 ID = 401
   0.193282 2  6FD             Rx   d 8 00 00 00 00 00 00 00 00  Length = 242000 BitCount = 125 ID = 1789
   0.193509 1  130             Rx   d 8 00 00 00 00 00 00 01 03  Length = 240000 BitCount = 124 ID = 304
   0.193532 2  722             Rx   d 8 00 00 00 00 00 00 00 00  Length = 242000 BitCount = 125 ID = 1826
   0.194264 2  706             Rx   d 8 04 00 57 00 55 00 00 00  Length = 234000 BitCount = 121 ID = 1798
   0.194514 2  709             Rx   d 8 00 00 00 00 00 00 00 00  Length = 242000 BitCount = 125 ID = 1801
   0.194760 2  742             Rx   d 8 00 00 00 00 00 00 00 10  Length = 238000 BitCount = 123 ID = 1858
   0.195268 2  703             Rx   d 8 00 00 00 00 00 00 00 00  Length = 242000 BitCount = 125 ID = 1795
   0.195520 2  70A             Rx   d 8 00 00 00 00 00 00 00 00  Length = 244000 BitCount = 126 ID = 1802
   0.196307 2  6FE             Rx   d 8 02 00 03 00 00 00 00 00  Length = 241032 BitCount = 125 ID = 1790
   0.196555 2  70B             Rx   d 8 00 00 00 00 00 00 00 00  Length = 239036 BitCount = 124 ID = 1803
   0.196761 2  156             Rx   d 6 00 00 00 00 03 09  Length = 198000 BitCount = 103 ID = 342
   0.197294 1  140             Rx   d 8 80 E5 A1 00 00 00 00 0D  Length = 232000 BitCount = 120 ID = 320
   0.197317 2  707             Rx   d 8 00 00 00 00 00 00 00 00  Length = 244000 BitCount = 126 ID = 1799
   0.197567 2  70C             Rx   d 8 00 00 00 00 00 00 00 00  Length = 242000 BitCount = 125 ID = 1804
   0.197803 2  743             Rx   d 8 6E E0 06 32 32 00 00 10  Length = 228000 BitCount = 118 ID = 1859
   0.198043 2  5E              Rx   d 8 80 00 04 00 FE F5 C5 E1  Length = 232000 BitCount = 120 ID = 94
   0.198283 2  94              Rx   d 8 80 00 08 02 00 08 0C 41  Length = 232000 BitCount = 120 ID = 148
   0.198491 2  156             Rx   d 6 00 00 00 00 07 23  Length = 200000 BitCount = 104 ID = 342
   0.198741 2  702             Rx   d 8 00 00 00 00 00 00 00 00  Length = 242000 BitCount = 125 ID = 1794
   0.199268 1  83              Rx   d 8 00 00 00 00 00 00 00 1C  Length = 240000 BitCount = 124 ID = 131
   0.200271 1  17C             Rx   d 8 00 00 03 1F 00 00 00 10  Length = 242000 BitCount = 125 ID = 380
   0.200281 2  6FB             Rx   d 8 F5 05 00 00 00 00 00 00  Length = 236000 BitCount = 122 ID = 1787
   0.200477 1  89              Rx   d 6 00 00 00 00 00 16  Length = 198000 BitCount = 103 ID = 137
   0.200533 2  6FC             Rx   d 8 00 00 00 00 00 00 00 00  Length = 244000 BitCount = 126 ID = 1788
   0.200785 2  6FF             Rx   d 8 00 00 00 00 00 00 00 00  Length = 244000 BitCount = 126 ID = 1791
   0.201033 2  705             Rx   d 8 00 00 00 00 00 00 B0 29  Length = 240000 BitCount = 124 ID = 1797
   0.201274 2  701             Rx   d 8 B8 02 00 00 00 80 00 30  Length = 233036 BitCount = 121 ID = 1793
   0.201524 2  708             Rx   d 8 00 00 00 00 00 00 00 00  Length = 241032 BitCount = 125 ID = 1800
   0.201772 2  741             Rx   d 8 08 00 00 00 00 00 00 20  Length = 240000 BitCount = 124 ID = 1857
   0.202266 2  704             Rx   d 8 00 00 00 00 00 00 00 00  Length = 246000 BitCount = 127 ID = 1796
   0.202514 2  721             Rx   d 8 00 00 00 00 00 00 00 00  Length = 240000 BitCount = 124 ID = 1825
   0.203257 1  191             Rx   d 8 04 00 00 00 00 00 00 18  Length = 236000 BitCount = 122 ID = 401
   0.203278 2  6FD             Rx   d 8 00 00 00 00 00 00 00 00  Length = 242000 BitCount = 125 ID = 1789
   0.203503 1  130             Rx   d 8 00 00 00 00 00 00 01 12  Length = 238000 BitCount = 123 ID = 304
   0.203528 2  722             Rx   d 8 00 00 00 00 00 00 00 00  Length = 242000 BitCount = 125 ID = 1826
   0.204262 2  706             Rx   d 8 04 00 57 02 56 00 00 00  Length = 236000 BitCount = 122 ID = 1798
   0.204512 2  709             Rx   d 8 00 00 00 00 00 00 00 00  Length = 242000 BitCount = 125 ID = 1801
   0.204748 2  742             Rx   d 8 78 80 07 90 01 05 05 05  Length = 228000 BitCount = 118 ID = 1858
   0.205260 2  703             Rx   d 8 00 00 00 00 00 00 00 00  Length = 242000 BitCount = 125 ID = 1795
   0.205512 2  70A             Rx   d 8 00 00 00 00 00 00 00 00  Length = 244000 BitCount = 126 ID = 1802
   0.206263 2  6FE             Rx   d 8 02 00 03 00 00 00 00 00  Length = 241032 BitCount = 125 ID = 1790
   0.206511 2  70B             Rx   d 8 00 00 00 00 00 00 00 00  Length = 239036 BitCount = 124 ID = 1803
   0.206719 2  156             Rx   d 6 00 00 00 00 03 18  Length = 199040 BitCount = 104 ID = 342
   0.207306 1  140             Rx   d 8 80 E5 A1 00 00 00 00 1C  Length = 232000 BitCount = 120 ID = 320
   0.207329 2  707             Rx   d 8 00 00 00 00 00 00 00 00  Length = 244000 BitCount = 126 ID = 1799
   0.207579 2  70C             Rx   d 8 00 00 00 00 00 00 00 00  Length = 242000 BitCount = 125 ID = 1804
   0.207811 2  743             Rx   d 8 A5 50 0A FA A0 0F 08 02  Length = 224000 BitCount = 116 ID = 1859
   0.208051 2  5E              Rx   d 8 80 00 04 00 FE F5 C5 E1  Length = 232000 BitCount = 120 ID = 94
   0.208293 2  94              Rx   d 8 80 00 08 02 00 08 0C 50  Length = 234000 BitCount = 121 ID = 148
   0.208499 2  156             Rx   d 6 00 00 00 00 07 32  Length = 198000 BitCount = 103 ID = 342
   0.208749 2  702             Rx   d 8 00 00 00 00 00 00 00 00  Length = 242000 BitCount = 125 ID = 1794
   0.209274 1  83              Rx   d 8 00 00 00 00 00 00 00 2B  Length = 242000 BitCount = 125 ID = 131
   0.210275 1  17C             Rx   d 8 00 00 03 1F 00 00 00 2F  Length = 239036 BitCount = 124 ID = 380
   0.210287 2  6FB             Rx   d 8 F5 05 00 00 00 00 00 00  Length = 236000 BitCount = 122 ID = 1787
   0.210483 1  89              Rx   d 6 00 00 00 00 00 25  Length = 199040 BitCount = 104 ID = 137
   0.210539 2  6FC             Rx   d 8 00 00 00 00 00 00 00 00  Length = 244000 BitCount = 126 ID = 1788
   0.210791 2  6FF             Rx   d 8 00 00 00 00 00 00 00 00  Length = 244000 BitCount = 126 ID = 1791
   0.211039 2  705             Rx   d 8 00 00 00 00 00 00 B0 29  Length = 240000 BitCount = 124 ID = 1797
   0.211281 2  701             Rx   d 8 B7 02 00 00 00 80 00 30  Length = 234000 BitCount = 121 ID = 1793
   0.211530 2  708             Rx   d 8 00 00 00 00 00 00 00 00  Length = 241032 BitCount = 125 ID = 1800
   0.211772 2  741             Rx   d 8 21 21 0D 00 00 00 38 00  Length = 233036 BitCount = 121 ID = 1857
   0.212270 2  704             Rx   d 8 00 00 00 00 00 00 00 00  Length = 246000 BitCount = 127 ID = 1796
   0.212518 2  721             Rx   d 8 00 00 00 00 00 00 00 00  Length = 240000 BitCount = 124 ID = 1825
   0.213257 1  191             Rx   d 8 04 00 00 00 00 00 00 27  Length = 236000 BitCount = 122 ID = 401
   0.213278 2  6FD             Rx   d 8 00 00 00 00 00 00 00 00  Length = 242000 BitCount = 125 ID = 1789
   0.213505 1  130             Rx   d 8 00 00 00 00 00 00 01 21  Length = 240000 BitCount = 124 ID = 304
